Index       V(VI)           V(SUPPLY)          V(OUT)            I(VDD)           I(VINPUT)    
0        0.00000000e+00    0.00000000e+00    0.00000000e+00    0.00000000e+00    0.00000000e+00
1        1.00000000e-01    0.00000000e+00    9.82236656e-09    1.29873259e-14   -2.72962512e-14
2        2.00000000e-01    0.00000000e+00    6.87820302e-10    1.94802069e-14   -4.41761300e-14
3        3.00000000e-01    0.00000000e+00    1.11180708e-10    1.83627040e-14   -5.12540114e-14
4        4.00000000e-01    0.00000000e+00    6.20641726e-11    1.52620226e-14   -6.58879342e-14
5        5.00000000e-01    0.00000000e+00    6.26762437e-11    1.24409172e-14   -1.00940436e-13
6        6.00000000e-01    0.00000000e+00    8.44604798e-11    1.04295101e-14   -1.72660082e-13
7        7.00000000e-01    0.00000000e+00    1.30500665e-10    9.22237906e-15   -3.09581500e-13
8        8.00000000e-01    0.00000000e+00    2.16091427e-10    8.73273525e-15   -5.66019085e-13
9        9.00000000e-01    0.00000000e+00    3.73246517e-10    8.94173909e-15   -1.04789721e-12
10       1.00000000e+00    0.00000000e+00    6.65718452e-10    9.96658706e-15   -1.96586103e-12
11       0.00000000e+00    1.00000000e-01    7.76770294e-03   -3.45288904e-10    1.33272519e-14
12       1.00000000e-01    1.00000000e-01    8.49113136e-06   -1.17828920e-11   -1.43079461e-14
13       2.00000000e-01    1.00000000e-01    1.30076130e-08   -3.82638668e-13   -3.76831211e-14
14       3.00000000e-01    1.00000000e-01    1.68809894e-10    6.19674160e-15   -5.23715082e-14
15       4.00000000e-01    1.00000000e-01    7.06249399e-11    1.38186214e-14   -6.89886152e-14
16       5.00000000e-01    1.00000000e-01    6.83192899e-11    1.07179548e-14   -1.03761541e-13
17       6.00000000e-01    1.00000000e-01    8.89060353e-11    7.89683479e-15   -1.74671475e-13
18       7.00000000e-01    1.00000000e-01    1.34331615e-10    5.88545583e-15   -3.10788645e-13
19       8.00000000e-01    1.00000000e-01    2.19650711e-10    4.56097692e-15   -5.66508714e-13
20       9.00000000e-01    1.00000000e-01    3.78048967e-10    1.99124242e-15   -1.04768821e-12
21       1.00000000e+00    1.00000000e-01    6.74787566e-10   -4.44862454e-15   -1.96483618e-12
22       0.00000000e+00    2.00000000e-01    1.93938275e-01   -2.07343864e-09    4.17056730e-14
23       1.00000000e-01    2.00000000e-01    2.93830555e-04   -4.06299109e-10   -1.27769775e-15
24       2.00000000e-01    2.00000000e-01    4.32117317e-07   -1.38544294e-11   -2.46959890e-14
25       3.00000000e-01    2.00000000e-01    2.15972291e-09   -4.59199172e-13   -4.58785014e-14
26       4.00000000e-01    2.00000000e-01    9.23823329e-11    3.38715581e-15   -7.01061122e-14
27       5.00000000e-01    2.00000000e-01    6.86910156e-11    1.35193354e-14   -1.06862222e-13
28       6.00000000e-01    2.00000000e-01    8.91989013e-11    1.04186694e-14   -1.77492580e-13
29       7.00000000e-01    2.00000000e-01    1.34583933e-10    7.59755981e-15   -3.12800038e-13
30       8.00000000e-01    2.00000000e-01    2.20496711e-10    4.65992618e-15   -5.67715859e-13
31       9.00000000e-01    2.00000000e-01    3.89052897e-10   -1.29659493e-14   -1.04817784e-12
32       1.00000000e+00    2.00000000e-01    7.16290244e-10   -6.59363213e-14   -1.96462719e-12
33       0.00000000e+00    3.00000000e-01    2.99725050e-01   -2.70068241e-09    6.49598552e-14
34       1.00000000e-01    3.00000000e-01    1.12483216e-02   -1.30700851e-08    7.08214337e-15
35       2.00000000e-01    3.00000000e-01    1.43571346e-05   -4.60950219e-10   -1.17043105e-14
36       3.00000000e-01    3.00000000e-01    6.94290069e-08   -1.59776642e-11   -3.28913998e-14
37       4.00000000e-01    3.00000000e-01    1.10524455e-09   -5.40738134e-13   -6.36131068e-14
38       5.00000000e-01    3.00000000e-01    8.65073001e-11    2.90228869e-16   -1.07979719e-13
39       6.00000000e-01    3.00000000e-01    8.93577504e-11    1.33569518e-14   -1.80593261e-13
40       7.00000000e-01    3.00000000e-01    1.34720867e-10    1.02562728e-14   -3.15621144e-13
41       8.00000000e-01    3.00000000e-01    2.22214510e-10    4.42164348e-15   -5.69727252e-13
42       9.00000000e-01    3.00000000e-01    4.17012484e-10   -5.10074599e-14   -1.04938499e-12
43       1.00000000e+00    3.00000000e-01    8.22969944e-10   -2.22958783e-13   -1.96511682e-12
44       0.00000000e+00    4.00000000e-01    3.99963942e-01   -3.44168219e-09    2.79135906e-13
45       1.00000000e-01    4.00000000e-01    3.90796032e-01   -7.90823672e-08    6.12718157e-14
46       2.00000000e-01    4.00000000e-01    4.59724190e-04   -1.46808397e-08   -4.87945580e-15
47       3.00000000e-01    4.00000000e-01    2.26154053e-06   -5.21262362e-10   -1.98999888e-14
48       4.00000000e-01    4.00000000e-01    3.46915032e-08   -1.83814761e-11   -5.06260186e-14
49       5.00000000e-01    4.00000000e-01    8.67465012e-10   -6.35070763e-13   -1.01486715e-13
50       6.00000000e-01    4.00000000e-01    1.06813500e-10   -3.36766323e-15   -1.81710758e-13
51       7.00000000e-01    4.00000000e-01    1.34838810e-10    1.32170605e-14   -3.18721825e-13
52       8.00000000e-01    4.00000000e-01    2.25116709e-10    3.44174983e-15   -5.72548358e-13
53       9.00000000e-01    4.00000000e-01    4.65950850e-10   -1.17693746e-13   -1.05139638e-12
54       1.00000000e+00    4.00000000e-01    1.00998924e-09   -4.97884928e-13   -1.96632396e-12
55       0.00000000e+00    5.00000000e-01    4.99983696e-01   -4.35205291e-09    5.05767942e-13
56       1.00000000e-01    5.00000000e-01    4.98976744e-01   -9.65646293e-08    2.76904327e-13
57       2.00000000e-01    5.00000000e-01    1.51096183e-02   -3.94995935e-07    7.61395112e-15
58       3.00000000e-01    5.00000000e-01    7.06517972e-05   -1.62780921e-08   -1.30698883e-14
59       4.00000000e-01    5.00000000e-01    1.10866424e-06   -5.88462689e-10   -3.76342716e-14
60       5.00000000e-01    5.00000000e-01    2.62821167e-08   -2.11132623e-11   -8.84996391e-14
61       6.00000000e-01    5.00000000e-01    8.25382137e-10   -7.44335301e-13   -1.75217756e-13
62       7.00000000e-01    5.00000000e-01    1.53402571e-10   -7.68449174e-15   -3.19839322e-13
63       8.00000000e-01    5.00000000e-01    2.29103619e-10    1.32083467e-15   -5.75649039e-13
64       9.00000000e-01    5.00000000e-01    5.33937648e-10   -2.10309709e-13   -1.05421749e-12
65       1.00000000e+00    5.00000000e-01    1.26993015e-09   -8.79675232e-13   -1.96833535e-12
66       0.00000000e+00    6.00000000e-01    5.99988398e-01   -5.46343870e-09    4.87604689e-13
67       1.00000000e-01    6.00000000e-01    5.99556962e-01   -1.15506287e-07    5.04886246e-13
68       2.00000000e-01    6.00000000e-01    5.72758448e-01   -2.07786705e-06    2.37270249e-13
69       3.00000000e-01    6.00000000e-01    1.87669517e-03   -4.27955039e-07   -4.99996890e-16
70       4.00000000e-01    6.00000000e-01    3.39394177e-05   -1.80134815e-08   -3.07796182e-14
71       5.00000000e-01    6.00000000e-01    8.23762353e-07   -6.63298167e-10   -7.55074535e-14
72       6.00000000e-01    6.00000000e-01    2.37727760e-08   -2.42126710e-11   -1.62230690e-13
73       7.00000000e-01    6.00000000e-01    8.75421695e-10   -8.70586422e-13   -3.13346321e-13
74       8.00000000e-01    6.00000000e-01    2.54259657e-10   -3.05079495e-14   -5.76766536e-13
75       9.00000000e-01    6.00000000e-01    6.13810051e-10   -3.19330866e-13   -1.05731817e-12
76       1.00000000e+00    6.00000000e-01    1.57537036e-09   -1.32783538e-12   -1.97115645e-12
77       0.00000000e+00    7.00000000e-01    6.99989031e-01   -6.81018645e-09    3.67270136e-13
78       1.00000000e-01    7.00000000e-01    6.99690129e-01   -1.37247133e-07    4.87071816e-13
79       2.00000000e-01    7.00000000e-01    6.90560632e-01   -2.38379208e-06    4.98158137e-13
80       3.00000000e-01    7.00000000e-01    2.97049395e-02   -5.65254727e-06    1.31015604e-13
81       4.00000000e-01    7.00000000e-01    8.66519318e-04   -4.58833178e-07   -1.75383439e-14
82       5.00000000e-01    7.00000000e-01    2.47174196e-05   -1.99029738e-08   -6.86247117e-14
83       6.00000000e-01    7.00000000e-01    7.30423113e-07   -7.46517657e-10   -1.49237949e-13
84       7.00000000e-01    7.00000000e-01    2.35026595e-08   -2.77224323e-11   -3.00359262e-13
85       8.00000000e-01    7.00000000e-01    1.02014304e-09   -1.04005917e-12   -5.70273537e-13
86       9.00000000e-01    7.00000000e-01    7.19722909e-10   -4.66889748e-13   -1.05843567e-12
87       1.00000000e+00    7.00000000e-01    1.89140517e-09   -1.79135862e-12   -1.97425713e-12
88       0.00000000e+00    8.00000000e-01    7.99989105e-01   -8.43071547e-09    2.67092727e-13
89       1.00000000e-01    8.00000000e-01    7.99736870e-01   -1.62162716e-07    3.66737606e-13
90       2.00000000e-01    8.00000000e-01    7.93888198e-01   -2.67492725e-06    4.87581318e-13
91       3.00000000e-01    8.00000000e-01    6.64918921e-01   -1.90469046e-05    4.22134062e-13
92       4.00000000e-01    8.00000000e-01    1.14807286e-02   -5.89617079e-06    1.16019555e-13
93       5.00000000e-01    8.00000000e-01    6.10207287e-04   -4.90911268e-07   -5.46525275e-14
94       6.00000000e-01    8.00000000e-01    2.14830566e-05   -2.19580964e-08   -1.42323152e-13
95       7.00000000e-01    8.00000000e-01    7.07398414e-07   -8.38924752e-10   -2.87365784e-13
96       8.00000000e-01    8.00000000e-01    2.44354895e-08   -3.17195460e-11   -5.57286476e-13
97       9.00000000e-01    8.00000000e-01    1.62261187e-09   -1.74082248e-12   -1.05194267e-12
98       1.00000000e+00    8.00000000e-01    2.21572020e-09   -2.26909083e-12   -1.97537463e-12
99       0.00000000e+00    9.00000000e-01    8.99988625e-01   -1.03681710e-08    2.22658624e-13
100      1.00000000e-01    9.00000000e-01    8.99753359e-01   -1.90599689e-07    2.66482190e-13
101      2.00000000e-01    9.00000000e-01    8.95131730e-01   -2.98158732e-06    3.67112724e-13
102      3.00000000e-01    9.00000000e-01    8.45895331e-01   -2.11028600e-05    5.02483720e-13
103      4.00000000e-01    9.00000000e-01    6.36037496e-02   -2.74874504e-05    3.33431872e-13
104      5.00000000e-01    9.00000000e-01    7.68196946e-03   -6.11212052e-06    8.11430626e-14
105      6.00000000e-01    9.00000000e-01    5.13286421e-04   -5.24399637e-07   -1.27551246e-13
106      7.00000000e-01    9.00000000e-01    2.03948497e-05   -2.41905257e-08   -2.80413116e-13
107      8.00000000e-01    9.00000000e-01    7.19028692e-07   -9.41423793e-10   -5.44291931e-13
108      9.00000000e-01    9.00000000e-01    2.66030181e-08   -3.68203125e-11   -1.03895559e-12
109      1.00000000e+00    9.00000000e-01    3.38770846e-09   -4.00601929e-12   -1.96888163e-12
110      0.00000000e+00    1.00000000e+00    9.99987736e-01   -1.26710748e-08    2.37031713e-13
111      1.00000000e-01    1.00000000e+00    9.99755369e-01   -2.22916941e-07    2.21957552e-13
112      2.00000000e-01    1.00000000e+00    9.95702983e-01   -3.30775720e-06    2.65367080e-13
113      3.00000000e-01    1.00000000e+00    9.61463896e-01   -2.24440292e-05    3.81453073e-13
114      4.00000000e-01    1.00000000e+00    5.97918773e-01   -6.15156871e-05    4.97981439e-13
115      5.00000000e-01    1.00000000e+00    3.73947213e-02   -2.82676427e-05    2.99392690e-13
116      6.00000000e-01    1.00000000e+00    6.22498973e-03   -6.32560814e-06    1.08761965e-14
117      7.00000000e-01    1.00000000e+00    4.71719634e-04   -5.59363035e-07   -2.64735652e-13
118      8.00000000e-01    1.00000000e+00    2.03202509e-05   -2.66124454e-08   -5.37291654e-13
119      9.00000000e-01    1.00000000e+00    7.52333591e-07   -1.05558487e-09   -1.02595933e-12
120      1.00000000e+00    1.00000000e+00    3.05795658e-08   -4.41676691e-11   -1.95589448e-12
End of Xyce(TM) Simulation
