Index       TIME             V(VDD)            V(VIN)           V(VOUT1)          V(VOUT2)          V(VOUT3)          V(VOUT4)          V(VOUT5)          V(VOUT6)          V(VOUT7)          V(VOUT8)          V(VOUT9)          V(VOUT10)         V(VOUT11)         V(VOUT12)         {-I(VDD)}       {-I(VINPUT)}   
0        0.00000000e+00    1.00000000e+00    0.00000000e+00    9.99987734e-01    3.07510631e-08    9.99987734e-01    3.07510630e-08    9.99987734e-01    3.07510630e-08    9.99987734e-01    3.07510630e-08    9.99987734e-01    3.07510630e-08    9.99987734e-01    3.05905256e-08    7.63033409e-08   -2.37031712e-13
1        1.00000000e-08    1.00000000e+00    0.00000000e+00    9.99987734e-01    3.07510630e-08    9.99987734e-01    3.07510630e-08    9.99987734e-01    3.07510634e-08    9.99987734e-01    3.07510629e-08    9.99987734e-01    3.07510634e-08    9.99987734e-01    3.05905255e-08    7.63033409e-08   -2.37031710e-13
2        2.00000000e-08    1.00000000e+00    1.00000000e-01    9.99751316e-01    1.63907689e-08    9.99987734e-01    3.07510646e-08    9.99987734e-01    3.07510631e-08    9.99987734e-01    3.07510632e-08    9.99987734e-01    3.07510628e-08    9.99987734e-01    3.05905256e-08    2.86360385e-07    8.03806708e-09
3        3.00000000e-08    1.00000000e+00    2.00000000e-01    9.95354101e-01   -1.50790833e-07    9.99987734e-01    3.07510638e-08    9.99987734e-01    3.07510630e-08    9.99987734e-01    3.07510631e-08    9.99987734e-01    3.07510633e-08    9.99987734e-01    3.05905253e-08    3.60351098e-06    8.45217211e-09
4        4.00000000e-08    1.00000000e+00    3.00000000e-01    9.56328837e-01   -1.53665216e-06    9.99987734e-01    3.07510776e-08    9.99987734e-01    3.07510631e-08    9.99987734e-01    3.07510631e-08    9.99987734e-01    3.07510631e-08    9.99987734e-01    3.05905257e-08    2.38090199e-05    1.11304235e-08
5        5.00000000e-08    1.00000000e+00    4.00000000e-01    6.00986194e-01    6.22596721e-03    9.99994013e-01    3.52786423e-08    9.99987734e-01    3.07510365e-08    9.99987734e-01    3.07510630e-08    9.99987734e-01    3.07510631e-08    9.99987734e-01    3.05905258e-08    6.78348256e-05    3.60827032e-08
6        6.00000000e-08    1.00000000e+00    5.00000000e-01    3.88206083e-02    9.99953151e-01    2.07952081e-06    9.99987898e-01   -1.17080835e-07    9.99987673e-01    2.77550340e-08    9.99987748e-01    4.97763702e-08    9.99987798e-01    1.15669886e-07    9.99987923e-01    2.85303413e-05    1.00154542e-08
7        7.00000000e-08    1.00000000e+00    6.00000000e-01    7.29414392e-03    9.99982720e-01    1.04237923e-06    9.99987815e-01   -4.23024157e-08    9.99987704e-01    2.92677752e-08    9.99987741e-01    4.01587987e-08    9.99987765e-01    7.27353162e-08    9.99987828e-01    7.15494065e-06    8.23824712e-09
8        8.00000000e-08    1.00000000e+00    7.00000000e-01    1.35982459e-03    9.99987444e-01   -1.91966577e-07    9.99987716e-01    4.68373464e-08    9.99987740e-01    3.10759934e-08    9.99987732e-01    2.86832228e-08    9.99987727e-01    2.15186552e-08    9.99987715e-01    1.57192205e-06    7.06211614e-09
9        9.00000000e-08    1.00000000e+00    8.00000000e-01    4.64168227e-05    9.99984555e-01    2.40820050e-06    9.99987927e-01   -1.41013891e-07    9.99987663e-01    2.72390602e-08    9.99987750e-01    5.29247062e-08    9.99987808e-01    1.29645490e-07    9.99987953e-01   -1.23592983e-08    6.56864396e-09
10       1.00000000e-07    1.00000000e+00    9.00000000e-01    3.94494557e-06    9.99993647e-01   -4.42165010e-06    9.99987371e-01    3.52450687e-07    9.99987866e-01    3.73393928e-08    9.99987703e-01   -1.08016280e-08    9.99987594e-01   -1.54547487e-07    9.99987328e-01    3.46644391e-07    7.13194144e-09
11       1.10000000e-07    1.00000000e+00    1.00000000e+00    1.65192371e-06    9.99981262e-01    4.90281208e-06    9.99988131e-01   -3.21286523e-07    9.99987589e-01    2.35311581e-08    9.99987767e-01    7.62450411e-08    9.99987886e-01    2.33599900e-07    9.99988182e-01   -2.20170159e-07    6.52296888e-09
12       1.20000000e-07    1.00000000e+00    1.00000000e+00    3.07389985e-08    9.99987734e-01    3.07495883e-08    9.99987734e-01    3.07510399e-08    9.99987734e-01    3.07510609e-08    9.99987734e-01    3.07510712e-08    9.99987734e-01    3.07510722e-08    9.99987736e-01    7.63013762e-08    1.95564660e-12
13       1.30000000e-07    1.00000000e+00    1.00000000e+00    3.07413776e-08    9.99987734e-01    3.07527666e-08    9.99987734e-01    3.07510898e-08    9.99987734e-01    3.07510655e-08    9.99987734e-01    3.07510536e-08    9.99987734e-01    3.07510524e-08    9.99987736e-01    7.63013852e-08    1.95618078e-12
14       1.40000000e-07    1.00000000e+00    1.00000000e+00    3.07400392e-08    9.99987734e-01    3.07509786e-08    9.99987734e-01    3.07510618e-08    9.99987734e-01    3.07510630e-08    9.99987734e-01    3.07510636e-08    9.99987734e-01    3.07510636e-08    9.99987736e-01    7.63013801e-08    1.95588026e-12
15       1.50000000e-07    1.00000000e+00    1.00000000e+00    3.07387420e-08    9.99987734e-01    3.07492455e-08    9.99987734e-01    3.07510346e-08    9.99987734e-01    3.07510605e-08    9.99987734e-01    3.07510733e-08    9.99987734e-01    3.07510746e-08    9.99987736e-01    7.63013752e-08    1.95558898e-12
16       1.60000000e-07    1.00000000e+00    1.00000000e+00    3.07394110e-08    9.99987734e-01    3.07501392e-08    9.99987734e-01    3.07510486e-08    9.99987734e-01    3.07510618e-08    9.99987734e-01    3.07510683e-08    9.99987734e-01    3.07510689e-08    9.99987736e-01    7.63013778e-08    1.95573920e-12
17       1.70000000e-07    1.00000000e+00    1.00000000e+00    3.07400800e-08    9.99987734e-01    3.07510330e-08    9.99987734e-01    3.07510625e-08    9.99987734e-01    3.07510631e-08    9.99987734e-01    3.07510633e-08    9.99987734e-01    3.07510633e-08    9.99987736e-01    7.63013803e-08    1.95588943e-12
18       1.80000000e-07    1.00000000e+00    1.00000000e+00    3.07407489e-08    9.99987734e-01    3.07519268e-08    9.99987734e-01    3.07510764e-08    9.99987734e-01    3.07510645e-08    9.99987734e-01    3.07510583e-08    9.99987734e-01    3.07510577e-08    9.99987736e-01    7.63013828e-08    1.95603965e-12
19       1.90000000e-07    1.00000000e+00    1.00000000e+00    3.07414179e-08    9.99987734e-01    3.07528205e-08    9.99987734e-01    3.07510903e-08    9.99987734e-01    3.07510658e-08    9.99987734e-01    3.07510533e-08    9.99987734e-01    3.07510521e-08    9.99987736e-01    7.63013854e-08    1.95618988e-12
20       2.00000000e-07    1.00000000e+00    1.00000000e+00    3.07411712e-08    9.99987734e-01    3.07524909e-08    9.99987734e-01    3.07510852e-08    9.99987734e-01    3.07510653e-08    9.99987734e-01    3.07510551e-08    9.99987734e-01    3.07510542e-08    9.99987736e-01    7.63013844e-08    1.95613447e-12
21       2.10000000e-07    1.00000000e+00    1.00000000e+00    3.07408367e-08    9.99987734e-01    3.07520441e-08    9.99987734e-01    3.07510783e-08    9.99987734e-01    3.07510646e-08    9.99987734e-01    3.07510576e-08    9.99987734e-01    3.07510570e-08    9.99987736e-01    7.63013832e-08    1.95605937e-12
22       2.20000000e-07    1.00000000e+00    1.00000000e+00    3.07405023e-08    9.99987734e-01    3.07515973e-08    9.99987734e-01    3.07510713e-08    9.99987734e-01    3.07510639e-08    9.99987734e-01    3.07510601e-08    9.99987734e-01    3.07510598e-08    9.99987736e-01    7.63013819e-08    1.95598426e-12
23       2.30000000e-07    1.00000000e+00    1.00000000e+00    3.07401679e-08    9.99987734e-01    3.07511505e-08    9.99987734e-01    3.07510644e-08    9.99987734e-01    3.07510632e-08    9.99987734e-01    3.07510626e-08    9.99987734e-01    3.07510626e-08    9.99987736e-01    7.63013806e-08    1.95590916e-12
24       2.40000000e-07    1.00000000e+00    1.00000000e+00    3.07398334e-08    9.99987734e-01    3.07507037e-08    9.99987734e-01    3.07510575e-08    9.99987734e-01    3.07510625e-08    9.99987734e-01    3.07510651e-08    9.99987734e-01    3.07510654e-08    9.99987736e-01    7.63013794e-08    1.95583405e-12
25       2.50000000e-07    1.00000000e+00    1.00000000e+00    3.07394990e-08    9.99987734e-01    3.07502569e-08    9.99987734e-01    3.07510505e-08    9.99987734e-01    3.07510618e-08    9.99987734e-01    3.07510676e-08    9.99987734e-01    3.07510682e-08    9.99987736e-01    7.63013781e-08    1.95575895e-12
26       2.60000000e-07    1.00000000e+00    1.00000000e+00    3.07391645e-08    9.99987734e-01    3.07498101e-08    9.99987734e-01    3.07510436e-08    9.99987734e-01    3.07510611e-08    9.99987734e-01    3.07510701e-08    9.99987734e-01    3.07510710e-08    9.99987736e-01    7.63013768e-08    1.95568385e-12
27       2.70000000e-07    1.00000000e+00    1.00000000e+00    3.07388301e-08    9.99987734e-01    3.07493633e-08    9.99987734e-01    3.07510366e-08    9.99987734e-01    3.07510604e-08    9.99987734e-01    3.07510726e-08    9.99987734e-01    3.07510738e-08    9.99987736e-01    7.63013756e-08    1.95560874e-12
28       2.80000000e-07    1.00000000e+00    1.00000000e+00    3.07388563e-08    9.99987734e-01    3.07493984e-08    9.99987734e-01    3.07510372e-08    9.99987734e-01    3.07510605e-08    9.99987734e-01    3.07510724e-08    9.99987734e-01    3.07510736e-08    9.99987736e-01    7.63013757e-08    1.95561463e-12
29       2.90000000e-07    1.00000000e+00    1.00000000e+00    3.07390395e-08    9.99987734e-01    3.07496431e-08    9.99987734e-01    3.07510410e-08    9.99987734e-01    3.07510608e-08    9.99987734e-01    3.07510711e-08    9.99987734e-01    3.07510721e-08    9.99987736e-01    7.63013764e-08    1.95565577e-12
30       3.00000000e-07    1.00000000e+00    1.00000000e+00    3.07392226e-08    9.99987734e-01    3.07498878e-08    9.99987734e-01    3.07510448e-08    9.99987734e-01    3.07510612e-08    9.99987734e-01    3.07510697e-08    9.99987734e-01    3.07510705e-08    9.99987736e-01    7.63013771e-08    1.95569690e-12
31       3.10000000e-07    1.00000000e+00    1.00000000e+00    3.07394058e-08    9.99987734e-01    3.07501325e-08    9.99987734e-01    3.07510486e-08    9.99987734e-01    3.07510616e-08    9.99987734e-01    3.07510683e-08    9.99987734e-01    3.07510690e-08    9.99987736e-01    7.63013777e-08    1.95573803e-12
32       3.20000000e-07    1.00000000e+00    1.00000000e+00    3.07395890e-08    9.99987734e-01    3.07503771e-08    9.99987734e-01    3.07510524e-08    9.99987734e-01    3.07510620e-08    9.99987734e-01    3.07510669e-08    9.99987734e-01    3.07510674e-08    9.99987736e-01    7.63013784e-08    1.95577917e-12
33       3.30000000e-07    1.00000000e+00    1.00000000e+00    3.07397721e-08    9.99987734e-01    3.07506218e-08    9.99987734e-01    3.07510563e-08    9.99987734e-01    3.07510623e-08    9.99987734e-01    3.07510656e-08    9.99987734e-01    3.07510659e-08    9.99987736e-01    7.63013791e-08    1.95582030e-12
34       3.40000000e-07    1.00000000e+00    1.00000000e+00    3.07399553e-08    9.99987734e-01    3.07508665e-08    9.99987734e-01    3.07510601e-08    9.99987734e-01    3.07510627e-08    9.99987734e-01    3.07510642e-08    9.99987734e-01    3.07510643e-08    9.99987736e-01    7.63013798e-08    1.95586143e-12
35       3.50000000e-07    1.00000000e+00    1.00000000e+00    3.07401385e-08    9.99987734e-01    3.07511112e-08    9.99987734e-01    3.07510639e-08    9.99987734e-01    3.07510631e-08    9.99987734e-01    3.07510628e-08    9.99987734e-01    3.07510628e-08    9.99987736e-01    7.63013805e-08    1.95590257e-12
36       3.60000000e-07    1.00000000e+00    1.00000000e+00    3.07403216e-08    9.99987734e-01    3.07513559e-08    9.99987734e-01    3.07510677e-08    9.99987734e-01    3.07510634e-08    9.99987734e-01    3.07510615e-08    9.99987734e-01    3.07510612e-08    9.99987736e-01    7.63013812e-08    1.95594370e-12
37       3.70000000e-07    1.00000000e+00    1.00000000e+00    3.07405048e-08    9.99987734e-01    3.07516006e-08    9.99987734e-01    3.07510715e-08    9.99987734e-01    3.07510638e-08    9.99987734e-01    3.07510601e-08    9.99987734e-01    3.07510597e-08    9.99987736e-01    7.63013819e-08    1.95598484e-12
38       3.80000000e-07    1.00000000e+00    1.00000000e+00    3.07406880e-08    9.99987734e-01    3.07518453e-08    9.99987734e-01    3.07510753e-08    9.99987734e-01    3.07510642e-08    9.99987734e-01    3.07510587e-08    9.99987734e-01    3.07510581e-08    9.99987736e-01    7.63013826e-08    1.95602597e-12
39       3.90000000e-07    1.00000000e+00    1.00000000e+00    3.07408711e-08    9.99987734e-01    3.07520900e-08    9.99987734e-01    3.07510791e-08    9.99987734e-01    3.07510645e-08    9.99987734e-01    3.07510574e-08    9.99987734e-01    3.07510566e-08    9.99987736e-01    7.63013833e-08    1.95606710e-12
40       4.00000000e-07    1.00000000e+00    1.00000000e+00    3.07410543e-08    9.99987734e-01    3.07523347e-08    9.99987734e-01    3.07510829e-08    9.99987734e-01    3.07510649e-08    9.99987734e-01    3.07510560e-08    9.99987734e-01    3.07510550e-08    9.99987736e-01    7.63013840e-08    1.95610824e-12
41       4.10000000e-07    1.00000000e+00    1.00000000e+00    3.07412375e-08    9.99987734e-01    3.07525794e-08    9.99987734e-01    3.07510868e-08    9.99987734e-01    3.07510653e-08    9.99987734e-01    3.07510546e-08    9.99987734e-01    3.07510535e-08    9.99987736e-01    7.63013847e-08    1.95614937e-12
42       4.20000000e-07    1.00000000e+00    1.00000000e+00    3.07414206e-08    9.99987734e-01    3.07528240e-08    9.99987734e-01    3.07510906e-08    9.99987734e-01    3.07510657e-08    9.99987734e-01    3.07510533e-08    9.99987734e-01    3.07510520e-08    9.99987736e-01    7.63013854e-08    1.95619050e-12
43       4.30000000e-07    1.00000000e+00    1.00000000e+00    3.07412561e-08    9.99987734e-01    3.07526042e-08    9.99987734e-01    3.07510871e-08    9.99987734e-01    3.07510653e-08    9.99987734e-01    3.07510545e-08    9.99987734e-01    3.07510534e-08    9.99987736e-01    7.63013848e-08    1.95615354e-12
44       4.40000000e-07    1.00000000e+00    1.00000000e+00    3.07409402e-08    9.99987734e-01    3.07521821e-08    9.99987734e-01    3.07510806e-08    9.99987734e-01    3.07510647e-08    9.99987734e-01    3.07510568e-08    9.99987734e-01    3.07510560e-08    9.99987736e-01    7.63013836e-08    1.95608260e-12
45       4.50000000e-07    1.00000000e+00    1.00000000e+00    3.07406243e-08    9.99987734e-01    3.07517601e-08    9.99987734e-01    3.07510740e-08    9.99987734e-01    3.07510641e-08    9.99987734e-01    3.07510592e-08    9.99987734e-01    3.07510587e-08    9.99987736e-01    7.63013824e-08    1.95601166e-12
46       4.60000000e-07    1.00000000e+00    1.00000000e+00    3.07403084e-08    9.99987734e-01    3.07513381e-08    9.99987734e-01    3.07510674e-08    9.99987734e-01    3.07510635e-08    9.99987734e-01    3.07510615e-08    9.99987734e-01    3.07510614e-08    9.99987736e-01    7.63013812e-08    1.95594072e-12
47       4.70000000e-07    1.00000000e+00    1.00000000e+00    3.07399925e-08    9.99987734e-01    3.07509161e-08    9.99987734e-01    3.07510608e-08    9.99987734e-01    3.07510629e-08    9.99987734e-01    3.07510639e-08    9.99987734e-01    3.07510641e-08    9.99987736e-01    7.63013800e-08    1.95586977e-12
48       4.80000000e-07    1.00000000e+00    1.00000000e+00    3.07396766e-08    9.99987734e-01    3.07504940e-08    9.99987734e-01    3.07510542e-08    9.99987734e-01    3.07510622e-08    9.99987734e-01    3.07510662e-08    9.99987734e-01    3.07510668e-08    9.99987736e-01    7.63013788e-08    1.95579883e-12
49       4.90000000e-07    1.00000000e+00    1.00000000e+00    3.07393607e-08    9.99987734e-01    3.07500720e-08    9.99987734e-01    3.07510476e-08    9.99987734e-01    3.07510616e-08    9.99987734e-01    3.07510686e-08    9.99987734e-01    3.07510695e-08    9.99987736e-01    7.63013776e-08    1.95572789e-12
50       5.00000000e-07    1.00000000e+00    1.00000000e+00    3.07390449e-08    9.99987734e-01    3.07496500e-08    9.99987734e-01    3.07510411e-08    9.99987734e-01    3.07510610e-08    9.99987734e-01    3.07510709e-08    9.99987734e-01    3.07510721e-08    9.99987736e-01    7.63013764e-08    1.95565695e-12
51       5.10000000e-07    1.00000000e+00    1.00000000e+00    3.07387290e-08    9.99987734e-01    3.07492280e-08    9.99987734e-01    3.07510345e-08    9.99987734e-01    3.07510604e-08    9.99987734e-01    3.07510733e-08    9.99987734e-01    3.07510748e-08    9.99987736e-01    7.63013752e-08    1.95558601e-12
52       5.10000000e-07    1.00000000e+00    1.00000000e+00    3.07387290e-08    9.99987734e-01    3.07492280e-08    9.99987734e-01    3.07510345e-08    9.99987734e-01    3.07510604e-08    9.99987734e-01    3.07510733e-08    9.99987734e-01    3.07510748e-08    9.99987736e-01    7.63013752e-08    1.95558600e-12
53       5.20000000e-07    1.00000000e+00    9.00000000e-01   -1.41773879e-06    9.99987734e-01    3.07510416e-08    9.99987734e-01    3.07510631e-08    9.99987734e-01    3.07510631e-08    9.99987734e-01    3.07510631e-08    9.99987734e-01    3.07510631e-08    9.99987736e-01    7.84983501e-08   -6.80466135e-09
54       5.30000000e-07    1.00000000e+00    8.00000000e-01    3.64160201e-05    9.99987723e-01    3.07506167e-08    9.99987734e-01    3.07510631e-08    9.99987734e-01    3.07510631e-08    9.99987734e-01    3.07510631e-08    9.99987734e-01    3.07510632e-08    9.99987736e-01    1.26962867e-07   -6.74325011e-09
55       5.40000000e-07    1.00000000e+00    7.00000000e-01    5.15993428e-03    9.99985511e-01    3.07059587e-08    9.99987734e-01    3.07510631e-08    9.99987734e-01    3.07510631e-08    9.99987734e-01    3.07510631e-08    9.99987734e-01    3.07510631e-08    9.99987736e-01    4.77341789e-06   -7.25194352e-09
56       5.50000000e-07    1.00000000e+00    6.00000000e-01    1.23862960e-02    9.99982389e-01    3.06430112e-08    9.99987734e-01    3.07510631e-08    9.99987734e-01    3.07510631e-08    9.99987734e-01    3.07510632e-08    9.99987734e-01    3.07510631e-08    9.99987736e-01    1.13197301e-05   -7.99285064e-09
57       5.60000000e-07    1.00000000e+00    5.00000000e-01    3.85182059e-02    9.99960572e-01    2.90157075e-08    9.99987734e-01    3.07510630e-08    9.99987734e-01    3.07510631e-08    9.99987734e-01    3.07510631e-08    9.99987734e-01    3.07510631e-08    9.99987736e-01    2.85402018e-05   -1.02045594e-08
58       5.70000000e-07    1.00000000e+00    4.00000000e-01    5.94214329e-01    7.31318919e-03    9.99973397e-01    3.49034215e-07    9.99987627e-01   -7.81350819e-08    9.99987693e-01    8.11129336e-08    9.99987824e-01    2.21495995e-07    9.99987901e-01   -3.07065882e-08    6.86180311e-05   -3.70584212e-08
59       5.80000000e-07    1.00000000e+00    3.00000000e-01    9.61323731e-01   -3.23659867e-06    9.99987506e-01   -3.75219741e-07    9.99987863e-01    1.81696279e-07    9.99987790e-01   -3.90682358e-08    9.99987604e-01   -2.34577906e-07    9.99987507e-01    1.12220990e-07    2.29259872e-05   -1.15400974e-08
60       5.90000000e-07    1.00000000e+00    2.00000000e-01    9.94704397e-01    2.80953262e-06    9.99987855e-01    2.40042574e-07    9.99987667e-01   -4.71432330e-08    9.99987705e-01    6.67839722e-08    9.99987801e-01    1.67697387e-07    9.99987851e-01   -1.14691952e-08    3.77506638e-06   -8.42668791e-09
61       6.00000000e-07    1.00000000e+00    1.00000000e-01    9.99159783e-01   -2.38644866e-06    9.99987616e-01   -1.72106555e-07    9.99987798e-01    1.06254082e-07    9.99987762e-01   -4.17581224e-09    9.99987669e-01   -1.01992268e-07    9.99987620e-01    7.13562436e-08    9.30977063e-07   -8.24287842e-09
62       6.10000000e-07    1.00000000e+00   -4.15639745e-15    9.99955081e-01    1.06887784e-06    9.99987784e-01    1.16547851e-07    9.99987706e-01   -1.18908270e-09    9.99987722e-01    4.55265197e-08    9.99987761e-01    8.69079200e-08    9.99987782e-01    1.33511996e-08    3.13416268e-08   -8.03658145e-09
