Index       TIME            V(SUPPLY)           V(VI)            V(VOUT)          {-I(VDD)}       {-I(VINPUT)}   
0        0.00000000e+00    9.00000000e-01    0.00000000e+00    8.99988624e-01    1.03681710e-08   -2.22658626e-13
1        1.00000000e-08    9.00000000e-01    0.00000000e+00    8.99988624e-01    1.03681710e-08   -2.22658601e-13
2        2.00000000e-08    9.00000000e-01    1.00000000e-01    8.99676407e-01    2.39095312e-07    7.88972139e-09
3        3.00000000e-08    9.00000000e-01    2.00000000e-01    8.94899338e-01    3.08598189e-06    8.26529116e-09
4        4.00000000e-08    9.00000000e-01    3.00000000e-01    8.43910461e-01    2.12587970e-05    1.20024324e-08
5        5.00000000e-08    9.00000000e-01    4.00000000e-01    6.41800822e-02    2.74998737e-05    1.12686660e-08
6        6.00000000e-08    9.00000000e-01    5.00000000e-01    8.29699316e-03    6.39908424e-06    8.08323888e-09
7        7.00000000e-08    9.00000000e-01    6.00000000e-01    8.93431715e-04    8.42185278e-07    6.82044526e-09
8        8.00000000e-08    9.00000000e-01    7.00000000e-01    2.90385639e-05    2.94741877e-08    6.56347623e-09
9        9.00000000e-08    9.00000000e-01    8.00000000e-01    3.71780138e-06    5.88774203e-10    6.74589179e-09
10       1.00000000e-07    9.00000000e-01    9.00000000e-01    2.47495171e-06   -7.42690383e-10    6.78574295e-09
11       1.10000000e-07    9.00000000e-01    1.00000000e+00    2.43839908e-06   -7.87982584e-10    6.93680924e-09
12       1.20000000e-07    9.00000000e-01    1.00000000e+00    3.38769118e-09    4.00601900e-12    1.96885157e-12
13       1.30000000e-07    9.00000000e-01    1.00000000e+00    3.38772016e-09    4.00601944e-12    1.96890263e-12
14       1.40000000e-07    9.00000000e-01    1.00000000e+00    3.38771605e-09    4.00601937e-12    1.96889531e-12
15       1.50000000e-07    9.00000000e-01    1.00000000e+00    3.38769899e-09    4.00601910e-12    1.96886516e-12
16       1.60000000e-07    9.00000000e-01    1.00000000e+00    3.38769074e-09    4.00601896e-12    1.96885060e-12
17       1.70000000e-07    9.00000000e-01    1.00000000e+00    3.38769926e-09    4.00601910e-12    1.96886568e-12
18       1.80000000e-07    9.00000000e-01    1.00000000e+00    3.38770777e-09    4.00601923e-12    1.96888076e-12
19       1.90000000e-07    9.00000000e-01    1.00000000e+00    3.38771629e-09    4.00601936e-12    1.96889583e-12
20       2.00000000e-07    9.00000000e-01    1.00000000e+00    3.38772481e-09    4.00601949e-12    1.96891091e-12
21       2.10000000e-07    9.00000000e-01    1.00000000e+00    3.38772644e-09    4.00601952e-12    1.96891379e-12
22       2.20000000e-07    9.00000000e-01    1.00000000e+00    3.38772219e-09    4.00601946e-12    1.96890625e-12
23       2.30000000e-07    9.00000000e-01    1.00000000e+00    3.38771794e-09    4.00601940e-12    1.96889871e-12
24       2.40000000e-07    9.00000000e-01    1.00000000e+00    3.38771369e-09    4.00601934e-12    1.96889117e-12
25       2.50000000e-07    9.00000000e-01    1.00000000e+00    3.38770944e-09    4.00601928e-12    1.96888363e-12
26       2.60000000e-07    9.00000000e-01    1.00000000e+00    3.38770519e-09    4.00601922e-12    1.96887610e-12
27       2.70000000e-07    9.00000000e-01    1.00000000e+00    3.38770094e-09    4.00601916e-12    1.96886856e-12
28       2.80000000e-07    9.00000000e-01    1.00000000e+00    3.38769669e-09    4.00601910e-12    1.96886102e-12
29       2.90000000e-07    9.00000000e-01    1.00000000e+00    3.38769245e-09    4.00601904e-12    1.96885348e-12
30       3.00000000e-07    9.00000000e-01    1.00000000e+00    3.38768820e-09    4.00601898e-12    1.96884594e-12
31       3.10000000e-07    9.00000000e-01    1.00000000e+00    3.38769043e-09    4.00601901e-12    1.96884989e-12
32       3.20000000e-07    9.00000000e-01    1.00000000e+00    3.38769315e-09    4.00601905e-12    1.96885472e-12
33       3.30000000e-07    9.00000000e-01    1.00000000e+00    3.38769588e-09    4.00601908e-12    1.96885955e-12
34       3.40000000e-07    9.00000000e-01    1.00000000e+00    3.38769860e-09    4.00601912e-12    1.96886438e-12
35       3.50000000e-07    9.00000000e-01    1.00000000e+00    3.38770133e-09    4.00601916e-12    1.96886921e-12
36       3.60000000e-07    9.00000000e-01    1.00000000e+00    3.38770406e-09    4.00601920e-12    1.96887404e-12
37       3.70000000e-07    9.00000000e-01    1.00000000e+00    3.38770678e-09    4.00601923e-12    1.96887887e-12
38       3.80000000e-07    9.00000000e-01    1.00000000e+00    3.38770951e-09    4.00601927e-12    1.96888370e-12
39       3.90000000e-07    9.00000000e-01    1.00000000e+00    3.38771223e-09    4.00601931e-12    1.96888853e-12
40       4.00000000e-07    9.00000000e-01    1.00000000e+00    3.38771496e-09    4.00601934e-12    1.96889336e-12
41       4.10000000e-07    9.00000000e-01    1.00000000e+00    3.38771769e-09    4.00601938e-12    1.96889819e-12
42       4.20000000e-07    9.00000000e-01    1.00000000e+00    3.38772041e-09    4.00601942e-12    1.96890302e-12
43       4.30000000e-07    9.00000000e-01    1.00000000e+00    3.38772314e-09    4.00601946e-12    1.96890785e-12
44       4.40000000e-07    9.00000000e-01    1.00000000e+00    3.38772586e-09    4.00601949e-12    1.96891268e-12
45       4.50000000e-07    9.00000000e-01    1.00000000e+00    3.38772859e-09    4.00601953e-12    1.96891751e-12
46       4.60000000e-07    9.00000000e-01    1.00000000e+00    3.38772237e-09    4.00601945e-12    1.96890650e-12
47       4.70000000e-07    9.00000000e-01    1.00000000e+00    3.38771546e-09    4.00601936e-12    1.96889428e-12
48       4.80000000e-07    9.00000000e-01    1.00000000e+00    3.38770856e-09    4.00601928e-12    1.96888206e-12
49       4.90000000e-07    9.00000000e-01    1.00000000e+00    3.38770166e-09    4.00601919e-12    1.96886985e-12
50       5.00000000e-07    9.00000000e-01    1.00000000e+00    3.38769475e-09    4.00601910e-12    1.96885763e-12
51       5.10000000e-07    9.00000000e-01    1.00000000e+00    3.38768785e-09    4.00601901e-12    1.96884541e-12
52       5.10000000e-07    9.00000000e-01    1.00000000e+00    3.38768785e-09    4.00601901e-12    1.96884540e-12
53       5.20000000e-07    9.00000000e-01    9.00000000e-01   -2.37447053e-06    9.12951281e-10   -6.80676102e-09
54       5.30000000e-07    9.00000000e-01    8.00000000e-01    4.30002813e-06    9.02806538e-09   -6.71791027e-09
55       5.40000000e-07    9.00000000e-01    7.00000000e-01    1.76040545e-05    2.50345621e-08   -6.62142438e-09
56       5.40000000e-07    9.00000000e-01    7.00000000e-01    1.76040545e-05    2.50345621e-08   -6.62142438e-09
57       5.50000000e-07    9.00000000e-01    6.00000000e-01    9.48494201e-04    8.89946330e-07   -6.70836191e-09
58       5.60000000e-07    9.00000000e-01    5.00000000e-01    8.06907151e-03    6.30421691e-06   -8.04592775e-09
59       5.70000000e-07    9.00000000e-01    4.00000000e-01    6.38783158e-02    2.74999589e-05   -1.13602569e-08
60       5.80000000e-07    9.00000000e-01    3.00000000e-01    8.45697106e-01    2.11249523e-05   -1.19040346e-08
61       5.90000000e-07    9.00000000e-01    2.00000000e-01    8.94587009e-01    3.24031692e-06   -8.50852031e-09
62       6.00000000e-07    9.00000000e-01    1.00000000e-01    8.99558219e-01    3.22728979e-07   -7.87963582e-09
63       6.10000000e-07    9.00000000e-01   -4.22405166e-15    8.99979971e-01    2.25214400e-08   -8.15543743e-09
64       6.20000000e-07    9.00000000e-01   -1.00000000e-01    8.99993666e-01    8.05554203e-09   -7.93049051e-09
65       6.30000000e-07    9.00000000e-01   -2.00000000e-01    8.99997067e-01    7.90260362e-09   -8.30542986e-09
66       6.40000000e-07    9.00000000e-01   -3.00000000e-01    8.99997526e-01    7.76496468e-09   -8.35577672e-09
67       6.50000000e-07    9.00000000e-01   -4.00000000e-01    8.99996663e-01    7.63420457e-09   -8.26018289e-09
68       6.60000000e-07    9.00000000e-01   -5.00000000e-01    8.99995799e-01    7.50344446e-09   -8.16458907e-09
69       6.70000000e-07    9.00000000e-01   -6.00000000e-01    8.99996010e-01    7.57715230e-09   -8.22515333e-09
70       6.80000000e-07    9.00000000e-01   -7.00000000e-01    8.99996646e-01    7.73195269e-09   -8.34765031e-09
71       6.90000000e-07    9.00000000e-01   -8.00000000e-01    8.99997283e-01    7.88675309e-09   -8.47014730e-09
72       7.00000000e-07    9.00000000e-01   -9.00000000e-01    8.99997919e-01    8.04155348e-09   -8.59264429e-09
73       7.10000000e-07    9.00000000e-01   -1.00000000e+00    8.99998556e-01    8.19635387e-09   -8.71514127e-09
74       7.10000000e-07    9.00000000e-01   -1.00000000e+00    8.99998556e-01    8.19635387e-09   -8.71514127e-09
75       7.20000000e-07    9.00000000e-01   -1.00000000e+00    8.99999891e-01    1.83313464e-10   -4.00133147e-11
76       7.30000000e-07    9.00000000e-01   -1.00000000e+00    8.99999891e-01    1.83250326e-10   -3.99507240e-11
77       7.40000000e-07    9.00000000e-01   -1.00000000e+00    8.99999891e-01    1.83250324e-10   -3.99507226e-11
78       7.50000000e-07    9.00000000e-01   -1.00000000e+00    8.99999891e-01    1.83250322e-10   -3.99507212e-11
79       7.60000000e-07    9.00000000e-01   -1.00000000e+00    8.99999891e-01    1.83250323e-10   -3.99507216e-11
80       7.70000000e-07    9.00000000e-01   -1.00000000e+00    8.99999891e-01    1.83250324e-10   -3.99507223e-11
81       7.80000000e-07    9.00000000e-01   -1.00000000e+00    8.99999891e-01    1.83250325e-10   -3.99507229e-11
82       7.90000000e-07    9.00000000e-01   -1.00000000e+00    8.99999891e-01    1.83250326e-10   -3.99507236e-11
83       8.00000000e-07    9.00000000e-01   -1.00000000e+00    8.99999891e-01    1.83250326e-10   -3.99507243e-11
84       8.10000000e-07    9.00000000e-01   -1.00000000e+00    8.99999891e-01    1.83250326e-10   -3.99507239e-11
85       8.20000000e-07    9.00000000e-01   -1.00000000e+00    8.99999891e-01    1.83250325e-10   -3.99507236e-11
86       8.30000000e-07    9.00000000e-01   -1.00000000e+00    8.99999891e-01    1.83250325e-10   -3.99507233e-11
87       8.40000000e-07    9.00000000e-01   -1.00000000e+00    8.99999891e-01    1.83250325e-10   -3.99507229e-11
88       8.50000000e-07    9.00000000e-01   -1.00000000e+00    8.99999891e-01    1.83250324e-10   -3.99507226e-11
89       8.60000000e-07    9.00000000e-01   -1.00000000e+00    8.99999891e-01    1.83250324e-10   -3.99507223e-11
90       8.70000000e-07    9.00000000e-01   -1.00000000e+00    8.99999891e-01    1.83250323e-10   -3.99507219e-11
91       8.80000000e-07    9.00000000e-01   -1.00000000e+00    8.99999891e-01    1.83250323e-10   -3.99507216e-11
92       8.90000000e-07    9.00000000e-01   -1.00000000e+00    8.99999891e-01    1.83250322e-10   -3.99507213e-11
93       9.00000000e-07    9.00000000e-01   -1.00000000e+00    8.99999891e-01    1.83250322e-10   -3.99507212e-11
94       9.10000000e-07    9.00000000e-01   -1.00000000e+00    8.99999891e-01    1.83250322e-10   -3.99507215e-11
95       9.20000000e-07    9.00000000e-01   -1.00000000e+00    8.99999891e-01    1.83250323e-10   -3.99507217e-11
96       9.30000000e-07    9.00000000e-01   -1.00000000e+00    8.99999891e-01    1.83250323e-10   -3.99507219e-11
97       9.40000000e-07    9.00000000e-01   -1.00000000e+00    8.99999891e-01    1.83250323e-10   -3.99507221e-11
98       9.50000000e-07    9.00000000e-01   -1.00000000e+00    8.99999891e-01    1.83250324e-10   -3.99507223e-11
99       9.60000000e-07    9.00000000e-01   -1.00000000e+00    8.99999891e-01    1.83250324e-10   -3.99507225e-11
100      9.70000000e-07    9.00000000e-01   -1.00000000e+00    8.99999891e-01    1.83250324e-10   -3.99507227e-11
101      9.80000000e-07    9.00000000e-01   -1.00000000e+00    8.99999891e-01    1.83250325e-10   -3.99507229e-11
102      9.90000000e-07    9.00000000e-01   -1.00000000e+00    8.99999891e-01    1.83250325e-10   -3.99507231e-11
103      1.00000000e-06    9.00000000e-01   -1.00000000e+00    8.99999891e-01    1.83250325e-10   -3.99507233e-11
104      1.01000000e-06    9.00000000e-01   -1.00000000e+00    8.99999891e-01    1.83250325e-10   -3.99507235e-11
105      1.02000000e-06    9.00000000e-01   -1.00000000e+00    8.99999891e-01    1.83250326e-10   -3.99507237e-11
106      1.03000000e-06    9.00000000e-01   -1.00000000e+00    8.99999891e-01    1.83250326e-10   -3.99507239e-11
107      1.04000000e-06    9.00000000e-01   -1.00000000e+00    8.99999891e-01    1.83250326e-10   -3.99507241e-11
108      1.05000000e-06    9.00000000e-01   -1.00000000e+00    8.99999891e-01    1.83250326e-10   -3.99507239e-11
109      1.06000000e-06    9.00000000e-01   -1.00000000e+00    8.99999891e-01    1.83250325e-10   -3.99507235e-11
110      1.07000000e-06    9.00000000e-01   -1.00000000e+00    8.99999891e-01    1.83250325e-10   -3.99507230e-11
111      1.08000000e-06    9.00000000e-01   -1.00000000e+00    8.99999891e-01    1.83250324e-10   -3.99507226e-11
112      1.09000000e-06    9.00000000e-01   -1.00000000e+00    8.99999891e-01    1.83250323e-10   -3.99507221e-11
113      1.10000000e-06    9.00000000e-01   -1.00000000e+00    8.99999891e-01    1.83250323e-10   -3.99507217e-11
114      1.11000000e-06    9.00000000e-01   -1.00000000e+00    8.99999891e-01    1.83250322e-10   -3.99507212e-11
115      1.12000000e-06    9.00000000e-01   -9.00000000e-01    9.00002502e-01   -7.56328458e-09    8.41887046e-09
116      1.13000000e-06    9.00000000e-01   -8.00000000e-01    9.00002585e-01   -7.55879987e-09    8.40664881e-09
117      1.14000000e-06    9.00000000e-01   -7.00000000e-01    9.00002685e-01   -7.54670519e-09    8.38680055e-09
118      1.15000000e-06    9.00000000e-01   -6.00000000e-01    9.00002790e-01   -7.53291888e-09    8.36564252e-09
119      1.16000000e-06    9.00000000e-01   -5.00000000e-01    9.00002967e-01   -7.49375794e-09    8.32483778e-09
120      1.17000000e-06    9.00000000e-01   -4.00000000e-01    9.00003143e-01   -7.45459701e-09    8.28403305e-09
121      1.18000000e-06    9.00000000e-01   -3.00000000e-01    9.00003320e-01   -7.41543608e-09    8.24322832e-09
122      1.19000000e-06    9.00000000e-01   -2.00000000e-01    9.00003168e-01   -7.06095035e-09    8.19817669e-09
123      1.20000000e-06    9.00000000e-01   -1.00000000e-01    8.99998085e-01   -1.97659268e-09    8.08942154e-09
124      1.21000000e-06    9.00000000e-01    0.00000000e+00    8.99993002e-01    3.10776499e-09    7.98066639e-09
125      1.22000000e-06    9.00000000e-01    0.00000000e+00    8.99988624e-01    1.03679781e-08   -3.15347718e-14
126      1.23000000e-06    9.00000000e-01    0.00000000e+00    8.99988624e-01    1.03681159e-08   -1.68048608e-13
127      1.24000000e-06    9.00000000e-01    0.00000000e+00    8.99988624e-01    1.03681710e-08   -2.22655863e-13
128      1.25000000e-06    9.00000000e-01    0.00000000e+00    8.99988624e-01    1.03681710e-08   -2.22658730e-13
129      1.26000000e-06    9.00000000e-01    0.00000000e+00    8.99988624e-01    1.03681710e-08   -2.22661597e-13
130      1.27000000e-06    9.00000000e-01    0.00000000e+00    8.99988624e-01    1.03681710e-08   -2.22662476e-13
131      1.28000000e-06    9.00000000e-01    0.00000000e+00    8.99988624e-01    1.03681710e-08   -2.22660371e-13
132      1.29000000e-06    9.00000000e-01    0.00000000e+00    8.99988624e-01    1.03681710e-08   -2.22658267e-13
133      1.30000000e-06    9.00000000e-01    0.00000000e+00    8.99988624e-01    1.03681710e-08   -2.22656162e-13
134      1.31000000e-06    9.00000000e-01    0.00000000e+00    8.99988624e-01    1.03681710e-08   -2.22654058e-13
135      1.32000000e-06    9.00000000e-01    0.00000000e+00    8.99988624e-01    1.03681710e-08   -2.22651954e-13
136      1.33000000e-06    9.00000000e-01    0.00000000e+00    8.99988624e-01    1.03681710e-08   -2.22649849e-13
137      1.34000000e-06    9.00000000e-01    0.00000000e+00    8.99988624e-01    1.03681710e-08   -2.22651380e-13
138      1.35000000e-06    9.00000000e-01    0.00000000e+00    8.99988624e-01    1.03681710e-08   -2.22652911e-13
139      1.36000000e-06    9.00000000e-01    0.00000000e+00    8.99988624e-01    1.03681710e-08   -2.22654442e-13
140      1.37000000e-06    9.00000000e-01    0.00000000e+00    8.99988624e-01    1.03681710e-08   -2.22655973e-13
141      1.38000000e-06    9.00000000e-01    0.00000000e+00    8.99988624e-01    1.03681710e-08   -2.22657504e-13
142      1.39000000e-06    9.00000000e-01    0.00000000e+00    8.99988624e-01    1.03681710e-08   -2.22659034e-13
143      1.40000000e-06    9.00000000e-01    0.00000000e+00    8.99988624e-01    1.03681710e-08   -2.22660565e-13
144      1.41000000e-06    9.00000000e-01    0.00000000e+00    8.99988624e-01    1.03681710e-08   -2.22662096e-13
145      1.42000000e-06    9.00000000e-01    0.00000000e+00    8.99988624e-01    1.03681710e-08   -2.22663627e-13
146      1.43000000e-06    9.00000000e-01    0.00000000e+00    8.99988624e-01    1.03681710e-08   -2.22665158e-13
147      1.44000000e-06    9.00000000e-01    0.00000000e+00    8.99988624e-01    1.03681710e-08   -2.22666689e-13
148      1.45000000e-06    9.00000000e-01    0.00000000e+00    8.99988624e-01    1.03681710e-08   -2.22668220e-13
149      1.46000000e-06    9.00000000e-01    0.00000000e+00    8.99988624e-01    1.03681710e-08   -2.22668118e-13
150      1.47000000e-06    9.00000000e-01    0.00000000e+00    8.99988624e-01    1.03681710e-08   -2.22661484e-13
151      1.48000000e-06    9.00000000e-01    0.00000000e+00    8.99988624e-01    1.03681710e-08   -2.22654850e-13
152      1.49000000e-06    9.00000000e-01    0.00000000e+00    8.99988624e-01    1.03681710e-08   -2.22648217e-13
153      1.50000000e-06    9.00000000e-01    0.00000000e+00    8.99988624e-01    1.03681710e-08   -2.22641583e-13
154      1.50000000e-06    9.00000000e-01    0.00000000e+00    8.99988624e-01    1.03681710e-08   -2.22641583e-13
End of Xyce(TM) Simulation
