Index       TIME            V(SUPPLY)           V(VI)            V(VOUT)          {-I(VDD)}       {-I(VINPUT)}   
0        0.00000000e+00    1.00000000e+00    0.00000000e+00    9.99987736e-01    1.26710748e-08   -2.37031713e-13
1        1.00000000e-08    1.00000000e+00    0.00000000e+00    9.99987736e-01    1.26710748e-08   -2.37031651e-13
2        2.00000000e-08    1.00000000e+00    1.00000000e-01    9.99657384e-01    2.99513858e-07    8.05426002e-09
3        3.00000000e-08    1.00000000e+00    2.00000000e-01    9.95568199e-01    3.38577164e-06    8.35333087e-09
4        4.00000000e-08    1.00000000e+00    3.00000000e-01    9.61105327e-01    2.25315951e-05    1.13170997e-08
5        5.00000000e-08    1.00000000e+00    4.00000000e-01    5.98475761e-01    6.14916147e-05    3.64083886e-08
6        6.00000000e-08    1.00000000e+00    5.00000000e-01    3.77182315e-02    2.83360353e-05    1.01257733e-08
7        7.00000000e-08    1.00000000e+00    6.00000000e-01    6.69076416e-03    6.62364299e-06    8.84307998e-09
8        8.00000000e-08    1.00000000e+00    7.00000000e-01    6.75894636e-04    7.74262813e-07    6.90350858e-09
9        9.00000000e-08    1.00000000e+00    8.00000000e-01    2.54579238e-05    2.95334302e-08    6.11213048e-09
10       1.00000000e-07    1.00000000e+00    9.00000000e-01    4.40963706e-06    1.45276182e-09    7.15015655e-09
11       1.10000000e-07    1.00000000e+00    1.00000000e+00    2.93389070e-06   -7.49401951e-10    7.53197170e-09
12       1.20000000e-07    1.00000000e+00    1.00000000e+00    3.05801168e-08    4.41676796e-11    1.95686379e-12
13       1.30000000e-07    1.00000000e+00    1.00000000e+00    3.05790626e-08    4.41676596e-11    1.95500958e-12
14       1.40000000e-07    1.00000000e+00    1.00000000e+00    3.05787795e-08    4.41676542e-11    1.95451143e-12
15       1.50000000e-07    1.00000000e+00    1.00000000e+00    3.05800450e-08    4.41676782e-11    1.95673718e-12
16       1.60000000e-07    1.00000000e+00    1.00000000e+00    3.05809969e-08    4.41676962e-11    1.95841142e-12
17       1.70000000e-07    1.00000000e+00    1.00000000e+00    3.05803641e-08    4.41676843e-11    1.95729857e-12
18       1.80000000e-07    1.00000000e+00    1.00000000e+00    3.05797313e-08    4.41676723e-11    1.95618573e-12
19       1.90000000e-07    1.00000000e+00    1.00000000e+00    3.05790986e-08    4.41676603e-11    1.95507288e-12
20       2.00000000e-07    1.00000000e+00    1.00000000e+00    3.05784658e-08    4.41676483e-11    1.95396003e-12
21       2.10000000e-07    1.00000000e+00    1.00000000e+00    3.05781286e-08    4.41676419e-11    1.95336703e-12
22       2.20000000e-07    1.00000000e+00    1.00000000e+00    3.05784450e-08    4.41676479e-11    1.95392345e-12
23       2.30000000e-07    1.00000000e+00    1.00000000e+00    3.05787614e-08    4.41676539e-11    1.95447987e-12
24       2.40000000e-07    1.00000000e+00    1.00000000e+00    3.05790778e-08    4.41676599e-11    1.95503628e-12
25       2.50000000e-07    1.00000000e+00    1.00000000e+00    3.05793942e-08    4.41676659e-11    1.95559270e-12
26       2.60000000e-07    1.00000000e+00    1.00000000e+00    3.05797106e-08    4.41676719e-11    1.95614912e-12
27       2.70000000e-07    1.00000000e+00    1.00000000e+00    3.05800270e-08    4.41676779e-11    1.95670553e-12
28       2.80000000e-07    1.00000000e+00    1.00000000e+00    3.05803434e-08    4.41676838e-11    1.95726195e-12
29       2.90000000e-07    1.00000000e+00    1.00000000e+00    3.05806598e-08    4.41676898e-11    1.95781837e-12
30       3.00000000e-07    1.00000000e+00    1.00000000e+00    3.05809762e-08    4.41676958e-11    1.95837478e-12
31       3.10000000e-07    1.00000000e+00    1.00000000e+00    3.05809778e-08    4.41676959e-11    1.95837773e-12
32       3.20000000e-07    1.00000000e+00    1.00000000e+00    3.05807731e-08    4.41676920e-11    1.95801764e-12
33       3.30000000e-07    1.00000000e+00    1.00000000e+00    3.05805683e-08    4.41676881e-11    1.95765754e-12
34       3.40000000e-07    1.00000000e+00    1.00000000e+00    3.05803635e-08    4.41676842e-11    1.95729745e-12
35       3.50000000e-07    1.00000000e+00    1.00000000e+00    3.05801588e-08    4.41676804e-11    1.95693736e-12
36       3.60000000e-07    1.00000000e+00    1.00000000e+00    3.05799540e-08    4.41676765e-11    1.95657726e-12
37       3.70000000e-07    1.00000000e+00    1.00000000e+00    3.05797492e-08    4.41676726e-11    1.95621717e-12
38       3.80000000e-07    1.00000000e+00    1.00000000e+00    3.05795445e-08    4.41676687e-11    1.95585708e-12
39       3.90000000e-07    1.00000000e+00    1.00000000e+00    3.05793397e-08    4.41676649e-11    1.95549699e-12
40       4.00000000e-07    1.00000000e+00    1.00000000e+00    3.05791349e-08    4.41676610e-11    1.95513689e-12
41       4.10000000e-07    1.00000000e+00    1.00000000e+00    3.05789302e-08    4.41676571e-11    1.95477680e-12
42       4.20000000e-07    1.00000000e+00    1.00000000e+00    3.05787254e-08    4.41676533e-11    1.95441671e-12
43       4.30000000e-07    1.00000000e+00    1.00000000e+00    3.05785206e-08    4.41676494e-11    1.95405661e-12
44       4.40000000e-07    1.00000000e+00    1.00000000e+00    3.05783159e-08    4.41676455e-11    1.95369652e-12
45       4.50000000e-07    1.00000000e+00    1.00000000e+00    3.05781111e-08    4.41676416e-11    1.95333643e-12
46       4.60000000e-07    1.00000000e+00    1.00000000e+00    3.05783610e-08    4.41676464e-11    1.95377585e-12
47       4.70000000e-07    1.00000000e+00    1.00000000e+00    3.05789091e-08    4.41676567e-11    1.95473971e-12
48       4.80000000e-07    1.00000000e+00    1.00000000e+00    3.05794572e-08    4.41676671e-11    1.95570356e-12
49       4.90000000e-07    1.00000000e+00    1.00000000e+00    3.05800053e-08    4.41676774e-11    1.95666742e-12
50       5.00000000e-07    1.00000000e+00    1.00000000e+00    3.05805534e-08    4.41676878e-11    1.95763128e-12
51       5.10000000e-07    1.00000000e+00    1.00000000e+00    3.05811015e-08    4.41676981e-11    1.95859514e-12
52       5.10000000e-07    1.00000000e+00    1.00000000e+00    3.05811015e-08    4.41676981e-11    1.95859513e-12
53       5.20000000e-07    1.00000000e+00    9.00000000e-01   -9.02588352e-07    2.92897521e-09   -6.80774750e-09
54       5.30000000e-07    1.00000000e+00    8.00000000e-01    1.57242497e-04    1.90876670e-07   -6.77218172e-09
55       5.40000000e-07    1.00000000e+00    7.00000000e-01    4.68873118e-04    5.60297603e-07   -6.77942550e-09
56       5.40000000e-07    1.00000000e+00    7.00000000e-01    4.68873118e-04    5.60297603e-07   -6.77942550e-09
57       5.50000000e-07    1.00000000e+00    6.00000000e-01    6.41464352e-03    6.47776765e-06   -7.94188905e-09
58       5.60000000e-07    1.00000000e+00    5.00000000e-01    3.78878930e-02    2.84027209e-05   -1.01777959e-08
59       5.70000000e-07    1.00000000e+00    4.00000000e-01    5.96871523e-01    6.15254700e-05   -3.65039286e-08
60       5.80000000e-07    1.00000000e+00    3.00000000e-01    9.60683065e-01    2.26364269e-05   -1.11412430e-08
61       5.90000000e-07    1.00000000e+00    2.00000000e-01    9.95516623e-01    3.42722241e-06   -8.68831716e-09
62       6.00000000e-07    1.00000000e+00    1.00000000e-01    9.99718558e-01    2.53977911e-07   -8.19805209e-09
63       6.10000000e-07    1.00000000e+00   -4.09394740e-15    9.99986608e-01    1.99802478e-08   -7.90859342e-09
64       6.20000000e-07    1.00000000e+00   -1.00000000e-01    9.99993099e-01    8.56938017e-09   -8.36094153e-09
65       6.30000000e-07    1.00000000e+00   -2.00000000e-01    9.99996350e-01    7.96403993e-09   -8.21979659e-09
66       6.40000000e-07    1.00000000e+00   -3.00000000e-01    9.99998958e-01    7.47457661e-09   -8.12029515e-09
67       6.50000000e-07    1.00000000e+00   -4.00000000e-01    9.99997934e-01    7.63968702e-09   -8.25603242e-09
68       6.60000000e-07    1.00000000e+00   -5.00000000e-01    9.99996911e-01    7.80479743e-09   -8.39176968e-09
69       6.70000000e-07    1.00000000e+00   -6.00000000e-01    9.99995887e-01    7.96990785e-09   -8.52750695e-09
70       6.80000000e-07    1.00000000e+00   -7.00000000e-01    9.99995621e-01    8.04720367e-09   -8.59088733e-09
71       6.90000000e-07    1.00000000e+00   -8.00000000e-01    9.99996810e-01    7.95550602e-09   -8.51502157e-09
72       7.00000000e-07    1.00000000e+00   -9.00000000e-01    9.99997999e-01    7.86380837e-09   -8.43915581e-09
73       7.10000000e-07    1.00000000e+00   -1.00000000e+00    9.99999188e-01    7.77211072e-09   -8.36329005e-09
74       7.10000000e-07    1.00000000e+00   -1.00000000e+00    9.99999188e-01    7.77211072e-09   -8.36329005e-09
75       7.20000000e-07    1.00000000e+00   -1.00000000e+00    9.99999852e-01    2.58650863e-10   -8.88384675e-11
76       7.30000000e-07    1.00000000e+00   -1.00000000e+00    9.99999852e-01    2.58626397e-10   -8.88142138e-11
77       7.40000000e-07    1.00000000e+00   -1.00000000e+00    9.99999852e-01    2.58619422e-10   -8.88072995e-11
78       7.50000000e-07    1.00000000e+00   -1.00000000e+00    9.99999852e-01    2.58619422e-10   -8.88072992e-11
79       7.60000000e-07    1.00000000e+00   -1.00000000e+00    9.99999852e-01    2.58619421e-10   -8.88072988e-11
80       7.70000000e-07    1.00000000e+00   -1.00000000e+00    9.99999852e-01    2.58619421e-10   -8.88072988e-11
81       7.80000000e-07    1.00000000e+00   -1.00000000e+00    9.99999852e-01    2.58619422e-10   -8.88072990e-11
82       7.90000000e-07    1.00000000e+00   -1.00000000e+00    9.99999852e-01    2.58619422e-10   -8.88072992e-11
83       8.00000000e-07    1.00000000e+00   -1.00000000e+00    9.99999852e-01    2.58619422e-10   -8.88072993e-11
84       8.10000000e-07    1.00000000e+00   -1.00000000e+00    9.99999852e-01    2.58619423e-10   -8.88072995e-11
85       8.20000000e-07    1.00000000e+00   -1.00000000e+00    9.99999852e-01    2.58619423e-10   -8.88072997e-11
86       8.30000000e-07    1.00000000e+00   -1.00000000e+00    9.99999852e-01    2.58619423e-10   -8.88072997e-11
87       8.40000000e-07    1.00000000e+00   -1.00000000e+00    9.99999852e-01    2.58619423e-10   -8.88072996e-11
88       8.50000000e-07    1.00000000e+00   -1.00000000e+00    9.99999852e-01    2.58619423e-10   -8.88072995e-11
89       8.60000000e-07    1.00000000e+00   -1.00000000e+00    9.99999852e-01    2.58619422e-10   -8.88072994e-11
90       8.70000000e-07    1.00000000e+00   -1.00000000e+00    9.99999852e-01    2.58619422e-10   -8.88072994e-11
91       8.80000000e-07    1.00000000e+00   -1.00000000e+00    9.99999852e-01    2.58619422e-10   -8.88072993e-11
92       8.90000000e-07    1.00000000e+00   -1.00000000e+00    9.99999852e-01    2.58619422e-10   -8.88072992e-11
93       9.00000000e-07    1.00000000e+00   -1.00000000e+00    9.99999852e-01    2.58619422e-10   -8.88072991e-11
94       9.10000000e-07    1.00000000e+00   -1.00000000e+00    9.99999852e-01    2.58619422e-10   -8.88072990e-11
95       9.20000000e-07    1.00000000e+00   -1.00000000e+00    9.99999852e-01    2.58619422e-10   -8.88072990e-11
96       9.30000000e-07    1.00000000e+00   -1.00000000e+00    9.99999852e-01    2.58619421e-10   -8.88072989e-11
97       9.40000000e-07    1.00000000e+00   -1.00000000e+00    9.99999852e-01    2.58619421e-10   -8.88072988e-11
98       9.50000000e-07    1.00000000e+00   -1.00000000e+00    9.99999852e-01    2.58619421e-10   -8.88072988e-11
99       9.60000000e-07    1.00000000e+00   -1.00000000e+00    9.99999852e-01    2.58619421e-10   -8.88072988e-11
100      9.70000000e-07    1.00000000e+00   -1.00000000e+00    9.99999852e-01    2.58619422e-10   -8.88072989e-11
101      9.80000000e-07    1.00000000e+00   -1.00000000e+00    9.99999852e-01    2.58619422e-10   -8.88072990e-11
102      9.90000000e-07    1.00000000e+00   -1.00000000e+00    9.99999852e-01    2.58619422e-10   -8.88072990e-11
103      1.00000000e-06    1.00000000e+00   -1.00000000e+00    9.99999852e-01    2.58619422e-10   -8.88072991e-11
104      1.01000000e-06    1.00000000e+00   -1.00000000e+00    9.99999852e-01    2.58619422e-10   -8.88072992e-11
105      1.02000000e-06    1.00000000e+00   -1.00000000e+00    9.99999852e-01    2.58619422e-10   -8.88072992e-11
106      1.03000000e-06    1.00000000e+00   -1.00000000e+00    9.99999852e-01    2.58619422e-10   -8.88072993e-11
107      1.04000000e-06    1.00000000e+00   -1.00000000e+00    9.99999852e-01    2.58619422e-10   -8.88072994e-11
108      1.05000000e-06    1.00000000e+00   -1.00000000e+00    9.99999852e-01    2.58619422e-10   -8.88072994e-11
109      1.06000000e-06    1.00000000e+00   -1.00000000e+00    9.99999852e-01    2.58619423e-10   -8.88072995e-11
110      1.07000000e-06    1.00000000e+00   -1.00000000e+00    9.99999852e-01    2.58619423e-10   -8.88072995e-11
111      1.08000000e-06    1.00000000e+00   -1.00000000e+00    9.99999852e-01    2.58619423e-10   -8.88072996e-11
112      1.09000000e-06    1.00000000e+00   -1.00000000e+00    9.99999852e-01    2.58619423e-10   -8.88072997e-11
113      1.10000000e-06    1.00000000e+00   -1.00000000e+00    9.99999852e-01    2.58619422e-10   -8.88072995e-11
114      1.11000000e-06    1.00000000e+00   -1.00000000e+00    9.99999852e-01    2.58619421e-10   -8.88072988e-11
115      1.12000000e-06    1.00000000e+00   -9.00000000e-01    1.00000241e+00   -7.53374253e-09    8.41487736e-09
116      1.13000000e-06    1.00000000e+00   -8.00000000e-01    1.00000249e+00   -7.54472189e-09    8.41715625e-09
117      1.14000000e-06    1.00000000e+00   -7.00000000e-01    1.00000258e+00   -7.54084209e-09    8.40455931e-09
118      1.15000000e-06    1.00000000e+00   -6.00000000e-01    1.00000267e+00   -7.53518537e-09    8.39069497e-09
119      1.16000000e-06    1.00000000e+00   -5.00000000e-01    1.00000281e+00   -7.50287487e-09    8.35781954e-09
120      1.17000000e-06    1.00000000e+00   -4.00000000e-01    1.00000295e+00   -7.47056437e-09    8.32494412e-09
121      1.18000000e-06    1.00000000e+00   -3.00000000e-01    1.00000309e+00   -7.43825387e-09    8.29206869e-09
122      1.19000000e-06    1.00000000e+00   -2.00000000e-01    1.00000287e+00   -7.02290612e-09    8.25613430e-09
123      1.20000000e-06    1.00000000e+00   -1.00000000e-01    9.99997262e-01   -8.61999618e-10    8.17431531e-09
124      1.21000000e-06    1.00000000e+00    0.00000000e+00    9.99991652e-01    5.29890688e-09    8.09249631e-09
125      1.22000000e-06    1.00000000e+00    0.00000000e+00    9.99987736e-01    1.26708999e-08   -6.36686891e-14
126      1.23000000e-06    1.00000000e+00    0.00000000e+00    9.99987736e-01    1.26710248e-08   -1.87496757e-13
127      1.24000000e-06    1.00000000e+00    0.00000000e+00    9.99987736e-01    1.26710748e-08   -2.37029384e-13
128      1.25000000e-06    1.00000000e+00    0.00000000e+00    9.99987736e-01    1.26710748e-08   -2.37031718e-13
129      1.26000000e-06    1.00000000e+00    0.00000000e+00    9.99987736e-01    1.26710748e-08   -2.37034052e-13
130      1.27000000e-06    1.00000000e+00    0.00000000e+00    9.99987736e-01    1.26710748e-08   -2.37034825e-13
131      1.28000000e-06    1.00000000e+00    0.00000000e+00    9.99987736e-01    1.26710748e-08   -2.37033254e-13
132      1.29000000e-06    1.00000000e+00    0.00000000e+00    9.99987736e-01    1.26710748e-08   -2.37031684e-13
133      1.30000000e-06    1.00000000e+00    0.00000000e+00    9.99987736e-01    1.26710748e-08   -2.37030114e-13
134      1.31000000e-06    1.00000000e+00    0.00000000e+00    9.99987736e-01    1.26710748e-08   -2.37028544e-13
135      1.32000000e-06    1.00000000e+00    0.00000000e+00    9.99987735e-01    1.26710748e-08   -2.37026974e-13
136      1.33000000e-06    1.00000000e+00    0.00000000e+00    9.99987735e-01    1.26710748e-08   -2.37025404e-13
137      1.34000000e-06    1.00000000e+00    0.00000000e+00    9.99987735e-01    1.26710748e-08   -2.37026490e-13
138      1.35000000e-06    1.00000000e+00    0.00000000e+00    9.99987735e-01    1.26710748e-08   -2.37027576e-13
139      1.36000000e-06    1.00000000e+00    0.00000000e+00    9.99987736e-01    1.26710748e-08   -2.37028662e-13
140      1.37000000e-06    1.00000000e+00    0.00000000e+00    9.99987736e-01    1.26710748e-08   -2.37029749e-13
141      1.38000000e-06    1.00000000e+00    0.00000000e+00    9.99987736e-01    1.26710748e-08   -2.37030835e-13
142      1.39000000e-06    1.00000000e+00    0.00000000e+00    9.99987736e-01    1.26710748e-08   -2.37031921e-13
143      1.40000000e-06    1.00000000e+00    0.00000000e+00    9.99987736e-01    1.26710748e-08   -2.37033008e-13
144      1.41000000e-06    1.00000000e+00    0.00000000e+00    9.99987736e-01    1.26710748e-08   -2.37034094e-13
145      1.42000000e-06    1.00000000e+00    0.00000000e+00    9.99987736e-01    1.26710748e-08   -2.37035180e-13
146      1.43000000e-06    1.00000000e+00    0.00000000e+00    9.99987736e-01    1.26710748e-08   -2.37036267e-13
147      1.44000000e-06    1.00000000e+00    0.00000000e+00    9.99987736e-01    1.26710748e-08   -2.37037353e-13
148      1.45000000e-06    1.00000000e+00    0.00000000e+00    9.99987736e-01    1.26710748e-08   -2.37038439e-13
149      1.46000000e-06    1.00000000e+00    0.00000000e+00    9.99987736e-01    1.26710748e-08   -2.37038399e-13
150      1.47000000e-06    1.00000000e+00    0.00000000e+00    9.99987736e-01    1.26710748e-08   -2.37033849e-13
151      1.48000000e-06    1.00000000e+00    0.00000000e+00    9.99987736e-01    1.26710748e-08   -2.37029300e-13
152      1.49000000e-06    1.00000000e+00    0.00000000e+00    9.99987736e-01    1.26710748e-08   -2.37024751e-13
153      1.50000000e-06    1.00000000e+00    0.00000000e+00    9.99987735e-01    1.26710748e-08   -2.37020201e-13
154      1.50000000e-06    1.00000000e+00    0.00000000e+00    9.99987735e-01    1.26710748e-08   -2.37020201e-13
End of Xyce(TM) Simulation
