Index     V(DRAIN)           V(GATE)        {-I(VDRAIN)}       {-I(VGATE)}       {-I(VBULK)}      {-I(VSOURCE)}  
0        0.00000000e+00    0.00000000e+00   -0.00000000e+00   -0.00000000e+00   -0.00000000e+00   -0.00000000e+00
1        1.00000000e-01    0.00000000e+00    1.60193944e-09   -6.57977825e-16   -1.41547741e-14   -1.60192463e-09
2        2.00000000e-01    0.00000000e+00    2.10567247e-09   -2.46665286e-15   -3.08255867e-13   -2.10536175e-09
3        3.00000000e-01    0.00000000e+00    2.70244619e-09   -5.42941793e-15   -1.66332511e-12   -2.70077743e-09
4        4.00000000e-01    0.00000000e+00    3.44170867e-09   -9.83228546e-15   -5.15906870e-12   -3.43653977e-09
5        5.00000000e-01    0.00000000e+00    4.35172840e-09   -1.62904094e-14   -1.17013293e-11   -4.34001078e-09
6        6.00000000e-01    0.00000000e+00    5.46312307e-09   -2.58913909e-14   -2.15912732e-11   -5.44150591e-09
7        7.00000000e-01    0.00000000e+00    6.81002246e-09   -4.04858443e-14   -3.44416724e-11   -6.77554030e-09
8        8.00000000e-01    0.00000000e+00    8.43070481e-09   -6.32310862e-14   -4.94460866e-11   -8.38119549e-09
9        9.00000000e-01    0.00000000e+00    1.03682882e-08   -9.96016852e-14   -6.57367589e-11   -1.03024518e-08
10       1.00000000e+00    0.00000000e+00    1.26713041e-08   -1.59293913e-13   -8.26119055e-11   -1.25885329e-08
11       0.00000000e+00    1.00000000e-01   -6.60936514e-16    1.32187303e-15  -3.55540293e-144   -6.60936514e-16
12       1.00000000e-01    1.00000000e-01    4.33158512e-08    6.60426452e-16   -3.89923034e-91   -4.33158519e-08
13       2.00000000e-01    1.00000000e-01    5.44321295e-08    2.47475192e-18   -1.11726680e-13   -5.44320178e-08
14       3.00000000e-01    1.00000000e-01    6.64625541e-08   -1.80593139e-15   -1.00289929e-12   -6.64615494e-08
15       4.00000000e-01    1.00000000e-01    8.04618312e-08   -4.76831549e-15   -3.68408392e-12   -8.04581423e-08
16       5.00000000e-01    1.00000000e-01    9.67434811e-08   -9.17071607e-15   -9.09289324e-12   -9.67343790e-08
17       6.00000000e-01    1.00000000e-01    1.15595423e-07   -1.56282926e-14   -1.76500795e-11   -1.15577757e-07
18       7.00000000e-01    1.00000000e-01    1.37318744e-07   -2.52286448e-14   -2.91208764e-11   -1.37289598e-07
19       8.00000000e-01    1.00000000e-01    1.62232422e-07   -3.98223835e-14   -4.28259833e-11   -1.62189556e-07
20       9.00000000e-01    1.00000000e-01    1.90674263e-07   -6.25668196e-14   -5.79719953e-11   -1.90616228e-07
21       1.00000000e+00    1.00000000e-01    2.23000940e-07   -9.89365159e-14   -7.38824798e-11   -2.22926959e-07
22       0.00000000e+00    2.00000000e-01   -2.60786438e-15    5.21572877e-15  -5.94832114e-143   -2.60786438e-15
23       1.00000000e-01    2.00000000e-01    1.06150835e-06    3.26229612e-15   -3.89923022e-91   -1.06150835e-06
24       2.00000000e-01    2.00000000e-01    1.27227627e-06    2.60651245e-15   -3.07774642e-90   -1.27227627e-06
25       3.00000000e-01    2.00000000e-01    1.46778855e-06    1.95887317e-15   -3.63498691e-13   -1.46778819e-06
26       4.00000000e-01    2.00000000e-01    1.67657013e-06    1.63116692e-16   -2.22131263e-12   -1.67656791e-06
27       5.00000000e-01    2.00000000e-01    1.90222391e-06   -2.78515968e-15   -6.49322256e-12   -1.90221741e-06
28       6.00000000e-01    2.00000000e-01    2.14620865e-06   -7.17232340e-15   -1.37155602e-11   -2.14619493e-06
29       7.00000000e-01    2.00000000e-01    2.40949031e-06   -1.36136896e-14   -2.38052557e-11   -2.40946650e-06
30       8.00000000e-01    2.00000000e-01    2.69283202e-06   -2.31969467e-14   -3.62099187e-11   -2.69279578e-06
31       9.00000000e-01    2.00000000e-01    2.99687678e-06   -3.77727636e-14   -5.02103979e-11   -2.99682653e-06
32       1.00000000e+00    2.00000000e-01    3.32217907e-06   -6.04984953e-14   -6.51555509e-11   -3.32211385e-06
33       0.00000000e+00    3.00000000e-01   -7.26430190e-15    1.45286038e-14  -3.82824622e-142   -7.26430190e-15
34       1.00000000e-01    3.00000000e-01    1.15363914e-05    9.80338333e-15   -3.89922900e-91   -1.15363914e-05
35       2.00000000e-01    3.00000000e-01    1.37024908e-05    7.86965787e-15   -3.07774585e-90   -1.37024908e-05
36       3.00000000e-01    3.00000000e-01    1.49599402e-05    7.24480795e-15   -1.00133352e-89   -1.49599402e-05
37       4.00000000e-01    3.00000000e-01    1.60968961e-05    6.64170328e-15   -8.05109730e-13   -1.60968953e-05
38       5.00000000e-01    3.00000000e-01    1.72088137e-05    4.89557042e-15   -3.91507777e-12   -1.72088097e-05
39       6.00000000e-01    3.00000000e-01    1.83205169e-05    1.99933499e-15   -9.79426164e-12   -1.83205072e-05
40       7.00000000e-01    3.00000000e-01    1.94416110e-05   -2.33447955e-15   -1.84986357e-11   -1.94415925e-05
41       8.00000000e-01    3.00000000e-01    2.05766084e-05   -8.72174396e-15   -2.96002876e-11   -2.05765788e-05
42       9.00000000e-01    3.00000000e-01    2.17278323e-05   -1.82504592e-14   -4.24535339e-11   -2.17277899e-05
43       1.00000000e+00    3.00000000e-01    2.28965067e-05   -3.27714845e-14   -5.64321787e-11   -2.28964502e-05
44       0.00000000e+00    4.00000000e-01   -1.76819445e-14    3.53638890e-14  -1.67945446e-141   -1.76819445e-14
45       1.00000000e-01    4.00000000e-01    3.74027326e-05    2.45651576e-14   -3.89922598e-91   -3.74027326e-05
46       2.00000000e-01    4.00000000e-01    4.96965858e-05    1.98416988e-14   -3.07774422e-90   -4.96965858e-05
47       3.00000000e-01    4.00000000e-01    5.40871746e-05    1.78532596e-14   -1.00133315e-89   -5.40871746e-05
48       4.00000000e-01    4.00000000e-01    5.69344119e-05    1.72474306e-14   -2.21784414e-89   -5.69344119e-05
49       5.00000000e-01    4.00000000e-01    5.93405415e-05    1.66918992e-14   -1.41901003e-12   -5.93405401e-05
50       6.00000000e-01    4.00000000e-01    6.15607061e-05    1.50031706e-14   -5.90543202e-12   -6.15607002e-05
51       7.00000000e-01    4.00000000e-01    6.36828010e-05    1.21686072e-14   -1.32098464e-11   -6.36827879e-05
52       8.00000000e-01    4.00000000e-01    6.57461250e-05    7.89865110e-15   -2.30018477e-11   -6.57461020e-05
53       9.00000000e-01    4.00000000e-01    6.77714094e-05    1.57648662e-15   -3.47042118e-11   -6.77713747e-05
54       1.00000000e+00    4.00000000e-01    6.97708483e-05   -7.88638025e-15   -4.77141254e-11   -6.97708006e-05
55       0.00000000e+00    5.00000000e-01   -3.80293007e-14    7.60586014e-14  -5.68285352e-141   -3.80293007e-14
56       1.00000000e-01    5.00000000e-01    6.59369905e-05    5.45904341e-14   -3.89922264e-91   -6.59369906e-05
57       2.00000000e-01    5.00000000e-01    9.95734261e-05    4.29304577e-14   -3.07774195e-90   -9.95734262e-05
58       3.00000000e-01    5.00000000e-01    1.12960004e-04    3.79837498e-14   -1.00133259e-89   -1.12960004e-04
59       4.00000000e-01    5.00000000e-01    1.19429439e-04    3.58058084e-14   -2.21784322e-89   -1.19429439e-04
60       5.00000000e-01    5.00000000e-01    1.23791997e-04    3.51638901e-14   -3.90896436e-89   -1.23791997e-04
61       6.00000000e-01    5.00000000e-01    1.27337789e-04    3.46354498e-14   -2.14040701e-12   -1.27337787e-04
62       7.00000000e-01    5.00000000e-01    1.30482631e-04    3.29990289e-14   -7.96485030e-12   -1.30482623e-04
63       8.00000000e-01    5.00000000e-01    1.33395147e-04    3.02281098e-14   -1.64255804e-11   -1.33395130e-04
64       9.00000000e-01    5.00000000e-01    1.36157077e-04    2.60275447e-14   -2.69680120e-11   -1.36157050e-04
65       1.00000000e+00    5.00000000e-01    1.38813558e-04    1.97780008e-14   -3.90045500e-11   -1.38813519e-04
66       0.00000000e+00    6.00000000e-01   -7.59005167e-14    1.51801033e-13  -1.63946080e-140   -7.59005167e-14
67       1.00000000e-01    6.00000000e-01    9.00893337e-05    1.11245053e-13   -3.89921982e-91   -9.00893339e-05
68       2.00000000e-01    6.00000000e-01    1.48319913e-04    8.61110831e-14   -3.07773973e-90   -1.48319913e-04
69       3.00000000e-01    6.00000000e-01    1.78037411e-04    7.33941717e-14   -1.00133197e-89   -1.78037411e-04
70       4.00000000e-01    6.00000000e-01    1.92339494e-04    6.77114303e-14   -2.21784215e-89   -1.92339494e-04
71       5.00000000e-01    6.00000000e-01    2.00485116e-04    6.51338251e-14   -3.90896292e-89   -2.00485116e-04
72       6.00000000e-01    6.00000000e-01    2.06177472e-04    6.43444967e-14   -5.89621242e-89   -2.06177472e-04
73       7.00000000e-01    6.00000000e-01    2.10731652e-04    6.37897891e-14   -2.88683464e-12   -2.10731649e-04
74       8.00000000e-01    6.00000000e-01    2.14670591e-04    6.21838910e-14   -9.90376809e-12   -2.14670581e-04
75       9.00000000e-01    6.00000000e-01    2.18234437e-04    5.94717652e-14   -1.92578092e-11   -2.18234418e-04
76       1.00000000e+00    6.00000000e-01    2.21548122e-04    5.53451239e-14   -3.03097243e-11   -2.21548092e-04
77       0.00000000e+00    7.00000000e-01   -1.45568371e-13    2.91136742e-13  -4.28929523e-140   -1.45568371e-13
78       1.00000000e-01    7.00000000e-01    1.08871260e-04    2.15433911e-13   -3.89921763e-91   -1.08871261e-04
79       2.00000000e-01    7.00000000e-01    1.89388332e-04    1.65443227e-13   -3.07773787e-90   -1.89388332e-04
80       3.00000000e-01    7.00000000e-01    2.38809753e-04    1.36070092e-13   -1.00133139e-89   -2.38809754e-04
81       4.00000000e-01    7.00000000e-01    2.65931197e-04    1.21298469e-13   -2.21784106e-89   -2.65931197e-04
82       5.00000000e-01    7.00000000e-01    2.80990626e-04    1.14269236e-13   -3.90896141e-89   -2.80990626e-04
83       6.00000000e-01    7.00000000e-01    2.90483110e-04    1.10955333e-13   -5.89621069e-89   -2.90483110e-04
84       7.00000000e-01    7.00000000e-01    2.97339866e-04    1.09819795e-13   -7.95241974e-89   -2.97339866e-04
85       8.00000000e-01    7.00000000e-01    3.02815540e-04    1.09128400e-13   -3.58958580e-12   -3.02815536e-04
86       9.00000000e-01    7.00000000e-01    3.07487360e-04    1.07496513e-13   -1.16114515e-11   -3.07487348e-04
87       1.00000000e+00    7.00000000e-01    3.11647682e-04    1.04818877e-13   -2.16441177e-11   -3.11647660e-04
88       0.00000000e+00    8.00000000e-01   -2.74276793e-13    5.48553586e-13  -1.05701932e-139   -2.74276793e-13
89       1.00000000e-01    8.00000000e-01    1.23173231e-04    4.06690588e-13   -3.89921596e-91   -1.23173231e-04
90       2.00000000e-01    8.00000000e-01    2.22077234e-04    3.10123162e-13   -3.07773638e-90   -2.22077234e-04
91       3.00000000e-01    8.00000000e-01    2.90768235e-04    2.48456861e-13   -1.00133090e-89   -2.90768235e-04
92       4.00000000e-01    8.00000000e-01    3.33753175e-04    2.13275785e-13   -2.21784006e-89   -3.33753176e-04
93       5.00000000e-01    8.00000000e-01    3.59284140e-04    1.95024866e-13   -3.90895994e-89   -3.59284140e-04
94       6.00000000e-01    8.00000000e-01    3.74981930e-04    1.85795823e-13   -5.89620895e-89   -3.74981930e-04
95       7.00000000e-01    8.00000000e-01    3.85583375e-04    1.81212024e-13   -7.95241796e-89   -3.85583375e-04
96       8.00000000e-01    8.00000000e-01    3.93468359e-04    1.79392658e-13   -9.88831786e-89   -3.93468360e-04
97       9.00000000e-01    8.00000000e-01    3.99798521e-04    1.78358163e-13   -4.20852551e-12   -3.99798517e-04
98       1.00000000e+00    8.00000000e-01    4.05168639e-04    1.76579440e-13   -1.30502676e-11   -4.05168626e-04
99       0.00000000e+00    9.00000000e-01   -5.15006864e-13    1.03001373e-12  -2.51406661e-139   -5.15006864e-13
100      1.00000000e-01    9.00000000e-01    1.34100327e-04    7.61067393e-13   -3.89921468e-91   -1.34100327e-04
101      2.00000000e-01    9.00000000e-01    2.47668342e-04    5.75348962e-13   -3.07773522e-90   -2.47668343e-04
102      3.00000000e-01    9.00000000e-01    3.33492765e-04    4.51892677e-13   -1.00133050e-89   -3.33492765e-04
103      4.00000000e-01    9.00000000e-01    3.92806856e-04    3.75253744e-13   -2.21783919e-89   -3.92806856e-04
104      5.00000000e-01    9.00000000e-01    4.31373721e-04    3.31514496e-13   -3.90895859e-89   -4.31373722e-04
105      6.00000000e-01    9.00000000e-01    4.55927147e-04    3.07811269e-13   -5.89620728e-89   -4.55927147e-04
106      7.00000000e-01    9.00000000e-01    4.72172577e-04    2.95115032e-13   -7.95241621e-89   -4.72172578e-04
107      8.00000000e-01    9.00000000e-01    4.83708370e-04    2.88421783e-13   -9.88831621e-89   -4.83708370e-04
108      9.00000000e-01    9.00000000e-01    4.92507960e-04    2.85361601e-13   -1.15933452e-88   -4.92507960e-04
109      1.00000000e+00    9.00000000e-01    4.99632766e-04    2.83621007e-13   -4.73001406e-12   -4.99632761e-04
110      0.00000000e+00    1.00000000e+00   -9.72963928e-13    1.94592786e-12  -5.86678181e-139   -9.72963928e-13
111      1.00000000e-01    1.00000000e+00    1.42546975e-04    1.42778936e-12   -3.89921370e-91   -1.42546976e-04
112      2.00000000e-01    1.00000000e+00    2.67731839e-04    1.06798260e-12   -3.07773431e-90   -2.67731840e-04
113      3.00000000e-01    1.00000000e+00    3.68121767e-04    8.24689413e-13   -1.00133017e-89   -3.68121768e-04
114      4.00000000e-01    1.00000000e+00    4.42721924e-04    6.66392214e-13   -2.21783845e-89   -4.42721924e-04
115      5.00000000e-01    1.00000000e+00    4.95200177e-04    5.69341552e-13   -3.90895739e-89   -4.95200177e-04
116      6.00000000e-01    1.00000000e+00    5.30708769e-04    5.12888140e-13   -5.89620574e-89   -5.30708769e-04
117      7.00000000e-01    1.00000000e+00    5.54643652e-04    4.80882717e-13   -7.95241454e-89   -5.54643653e-04
118      8.00000000e-01    1.00000000e+00    5.71365125e-04    4.62799627e-13   -9.88831460e-89   -5.71365125e-04
119      9.00000000e-01    1.00000000e+00    5.83702343e-04    4.52680930e-13   -1.15933438e-88   -5.83702343e-04
120      1.00000000e+00    1.00000000e+00    5.93320207e-04    4.47476177e-13   -1.30299268e-88   -5.93320208e-04
121      0.00000000e+00    1.10000000e+00   -1.86180787e-12    3.72361573e-12  -1.35881282e-138   -1.86180787e-12
122      1.00000000e-01    1.10000000e+00    1.49166886e-04    2.70610402e-12   -3.89921292e-91   -1.49166889e-04
123      2.00000000e-01    1.10000000e+00    2.83595639e-04    1.99939809e-12   -3.07773359e-90   -2.83595641e-04
124      3.00000000e-01    1.10000000e+00    3.96119262e-04    1.51927973e-12   -1.00132990e-89   -3.96119264e-04
125      4.00000000e-01    1.10000000e+00    4.84393790e-04    1.19967488e-12   -2.21783784e-89   -4.84393791e-04
126      5.00000000e-01    1.10000000e+00    5.50377155e-04    9.94823885e-13   -3.90895636e-89   -5.50377156e-04
127      6.00000000e-01    1.10000000e+00    5.97848283e-04    8.68823393e-13   -5.89620436e-89   -5.97848284e-04
128      7.00000000e-01    1.10000000e+00    6.31185878e-04    7.93535741e-13   -7.95241299e-89   -6.31185878e-04
129      8.00000000e-01    1.10000000e+00    6.54717347e-04    7.49001555e-13   -9.88831308e-89   -6.54717348e-04
130      9.00000000e-01    1.10000000e+00    6.71856841e-04    7.22598596e-13   -1.15933424e-88   -6.71856842e-04
131      1.00000000e+00    1.10000000e+00    6.84891024e-04    7.06994035e-13   -1.30299256e-88   -6.84891024e-04
132      0.00000000e+00    1.20000000e+00   -3.62587312e-12    7.25174624e-12  -3.14989070e-138   -3.62587312e-12
133      1.00000000e-01    1.20000000e+00    1.54425870e-04    5.21019212e-12   -3.89921231e-91   -1.54425876e-04
134      2.00000000e-01    1.20000000e+00    2.96272341e-04    3.79728143e-12   -3.07773301e-90   -2.96272345e-04
135      3.00000000e-01    1.20000000e+00    4.18836966e-04    2.83952140e-12   -1.00132968e-89   -4.18836969e-04
136      4.00000000e-01    1.20000000e+00    5.19053712e-04    2.19653415e-12   -2.21783733e-89   -5.19053715e-04
137      5.00000000e-01    1.20000000e+00    5.97533070e-04    1.77443305e-12   -3.90895547e-89   -5.97533072e-04
138      6.00000000e-01    1.20000000e+00    6.56957738e-04    1.50502736e-12   -5.89620314e-89   -6.56957739e-04
139      7.00000000e-01    1.20000000e+00    7.00693341e-04    1.33720856e-12   -7.95241159e-89   -7.00693342e-04
140      8.00000000e-01    1.20000000e+00    7.32443381e-04    1.23401296e-12   -9.88831165e-89   -7.32443383e-04
141      9.00000000e-01    1.20000000e+00    7.55705235e-04    1.17058733e-12   -1.15933411e-88   -7.55705236e-04
142      1.00000000e+00    1.20000000e+00    7.73214872e-04    1.13135652e-12   -1.30299245e-88   -7.73214873e-04
143      0.00000000e+00    1.30000000e+00   -7.21236574e-12    1.44247315e-11  -7.35413834e-138   -7.21236574e-12
144      1.00000000e-01    1.30000000e+00    1.58656060e-04    1.02316345e-11   -3.89921181e-91   -1.58656070e-04
145      2.00000000e-01    1.30000000e+00    3.06511054e-04    7.34792896e-12   -3.07773255e-90   -3.06511061e-04
146      3.00000000e-01    1.30000000e+00    4.37389525e-04    5.40570898e-12   -1.00132951e-89   -4.37389530e-04
147      4.00000000e-01    1.30000000e+00    5.47898899e-04    4.10193011e-12   -2.21783690e-89   -5.47898903e-04
148      5.00000000e-01    1.30000000e+00    6.37666070e-04    3.23721834e-12   -3.90895472e-89   -6.37666073e-04
149      6.00000000e-01    1.30000000e+00    7.08437029e-04    2.67355766e-12   -5.89620208e-89   -7.08437032e-04
150      7.00000000e-01    1.30000000e+00    7.62796199e-04    2.31235867e-12   -7.95241033e-89   -7.62796202e-04
151      8.00000000e-01    1.30000000e+00    8.03687277e-04    2.08347189e-12   -9.88831035e-89   -8.03687279e-04
152      9.00000000e-01    1.30000000e+00    8.34242625e-04    1.93876624e-12   -1.15933398e-88   -8.34242627e-04
153      1.00000000e+00    1.30000000e+00    8.57321171e-04    1.84677240e-12   -1.30299234e-88   -8.57321173e-04
154      0.00000000e+00    1.40000000e+00   -1.46929637e-11    2.93859274e-11  -1.73763796e-137   -1.46929637e-11
155      1.00000000e-01    1.40000000e+00    1.62096751e-04    2.05560527e-11   -3.89921141e-91   -1.62096771e-04
156      2.00000000e-01    1.40000000e+00    3.14863850e-04    1.45343774e-11   -3.07773217e-90   -3.14863865e-04
157      3.00000000e-01    1.40000000e+00    4.52653346e-04    1.05157086e-11   -1.00132936e-89   -4.52653356e-04
158      4.00000000e-01    1.40000000e+00    5.71978530e-04    7.83249108e-12   -2.21783655e-89   -5.71978537e-04
159      5.00000000e-01    1.40000000e+00    6.71800751e-04    6.05031224e-12   -3.90895408e-89   -6.71800757e-04
160      6.00000000e-01    1.40000000e+00    7.53063569e-04    4.87754424e-12   -5.89620116e-89   -7.53063573e-04
161      7.00000000e-01    1.40000000e+00    8.17726334e-04    4.11362626e-12   -7.95240922e-89   -8.17726338e-04
162      8.00000000e-01    1.40000000e+00    8.68107833e-04    3.61965095e-12   -9.88830917e-89   -8.68107837e-04
163      9.00000000e-01    1.40000000e+00    9.06787796e-04    3.30075920e-12   -1.15933387e-88   -9.06787799e-04
164      1.00000000e+00    1.40000000e+00    9.36420648e-04    3.09393844e-12   -1.30299224e-88   -9.36420651e-04
165      0.00000000e+00    1.50000000e+00   -3.07203682e-11    6.14407364e-11  -4.17077947e-137   -3.07203682e-11
166      1.00000000e-01    1.50000000e+00    1.64922774e-04    4.23504270e-11   -3.89921108e-91   -1.64922816e-04
167      2.00000000e-01    1.50000000e+00    3.21740262e-04    2.94620113e-11   -3.07773185e-90   -3.21740291e-04
168      3.00000000e-01    1.50000000e+00    4.65305340e-04    2.09553555e-11   -1.00132924e-89   -4.65305361e-04
169      4.00000000e-01    1.50000000e+00    5.92168710e-04    1.53251258e-11   -2.21783625e-89   -5.92168725e-04
170      5.00000000e-01    1.50000000e+00    7.00869213e-04    1.16014539e-11   -3.90895353e-89   -7.00869225e-04
171      6.00000000e-01    1.50000000e+00    7.91700051e-04    9.14755723e-12   -5.89620037e-89   -7.91700060e-04
172      7.00000000e-01    1.50000000e+00    8.66068224e-04    7.53786842e-12   -7.95240824e-89   -8.66068232e-04
173      8.00000000e-01    1.50000000e+00    9.25822747e-04    6.48526708e-12   -9.88830811e-89   -9.25822753e-04
