Index       TIME             V(BULK)          V(DRAIN)           V(GATE)          V(SOURCE)       {-I(VDRAIN)}       {-I(VGATE)}       {-I(VBULK)}      {-I(VSOURCE)}  
0        0.00000000e+00    0.00000000e+00    9.00000000e-01    0.00000000e+00    0.00000000e+00    1.03682882e-08   -9.96016852e-14   -6.57367589e-11   -1.03024518e-08
1        1.00000000e-08    0.00000000e+00    9.00000000e-01    0.00000000e+00    0.00000000e+00    1.03682882e-08   -9.96016852e-14   -6.57367589e-11   -1.03024518e-08
2        2.00000000e-08    0.00000000e+00    9.00000000e-01    1.00000000e-01    0.00000000e+00    2.68438066e-07    1.47632749e-09   -5.79721511e-11   -2.69856421e-07
3        3.00000000e-08    0.00000000e+00    9.00000000e-01    2.00000000e-01    0.00000000e+00    5.99263937e-06    1.83679268e-09   -5.02113196e-11   -5.99442595e-06
4        4.00000000e-08    0.00000000e+00    9.00000000e-01    3.00000000e-01    0.00000000e+00    3.35451876e-05    2.39339386e-09   -4.24584424e-11   -3.35475385e-05
5        5.00000000e-08    0.00000000e+00    9.00000000e-01    4.00000000e-01    0.00000000e+00    8.63240344e-05    3.05624072e-09   -3.47143774e-11   -8.63270560e-05
6        6.00000000e-08    0.00000000e+00    9.00000000e-01    5.00000000e-01    0.00000000e+00    1.39102881e-04    3.71908759e-09   -2.69703125e-11   -1.39106573e-04
7        7.00000000e-08    0.00000000e+00    9.00000000e-01    6.00000000e-01    0.00000000e+00    2.24467557e-04    3.88160723e-09   -2.13451022e-11   -2.24471418e-04
8        8.00000000e-08    0.00000000e+00    9.00000000e-01    7.00000000e-01    0.00000000e+00    3.14275755e-04    3.97590044e-09   -1.60088266e-11   -3.14279715e-04
9        9.00000000e-08    0.00000000e+00    9.00000000e-01    8.00000000e-01    0.00000000e+00    4.04083953e-04    4.07019364e-09   -1.06725511e-11   -4.04088013e-04
10       1.00000000e-07    0.00000000e+00    9.00000000e-01    9.00000000e-01    0.00000000e+00    4.93892152e-04    4.16448685e-09   -5.33627555e-12   -4.93896311e-04
11       1.10000000e-07    0.00000000e+00    9.00000000e-01    1.00000000e+00    0.00000000e+00    5.83700350e-04    4.25878005e-09    2.48800419e-25   -5.83704608e-04
12       1.20000000e-07    0.00000000e+00    9.00000000e-01    1.00000000e+00    0.00000000e+00    5.83702343e-04    4.52681031e-13   -0.00000000e+00   -5.83702343e-04
13       1.30000000e-07    0.00000000e+00    9.00000000e-01    1.00000000e+00    0.00000000e+00    5.83702343e-04    4.52680930e-13   -0.00000000e+00   -5.83702343e-04
14       1.40000000e-07    0.00000000e+00    9.00000000e-01    1.00000000e+00    0.00000000e+00    5.83702343e-04    4.52680930e-13   -0.00000000e+00   -5.83702343e-04
15       1.50000000e-07    0.00000000e+00    9.00000000e-01    1.00000000e+00    0.00000000e+00    5.83702343e-04    4.52680930e-13   -2.35489796e-89   -5.83702343e-04
16       1.60000000e-07    0.00000000e+00    9.00000000e-01    1.00000000e+00    0.00000000e+00    5.83702343e-04    4.52680930e-13   -8.01571035e-89   -5.83702343e-04
17       1.70000000e-07    0.00000000e+00    9.00000000e-01    1.00000000e+00    0.00000000e+00    5.83702343e-04    4.52680930e-13   -1.36765228e-88   -5.83702343e-04
18       1.80000000e-07    0.00000000e+00    9.00000000e-01    1.00000000e+00    0.00000000e+00    5.83702343e-04    4.52680930e-13   -1.93373351e-88   -5.83702343e-04
19       1.90000000e-07    0.00000000e+00    9.00000000e-01    1.00000000e+00    0.00000000e+00    5.83702343e-04    4.52680930e-13   -2.22809576e-88   -5.83702343e-04
20       2.00000000e-07    0.00000000e+00    9.00000000e-01    1.00000000e+00    0.00000000e+00    5.83702343e-04    4.52680930e-13   -1.94505514e-88   -5.83702343e-04
21       2.10000000e-07    0.00000000e+00    9.00000000e-01    1.00000000e+00    0.00000000e+00    5.83702343e-04    4.52680930e-13   -1.66201452e-88   -5.83702343e-04
22       2.20000000e-07    0.00000000e+00    9.00000000e-01    1.00000000e+00    0.00000000e+00    5.83702343e-04    4.52680930e-13   -1.37897390e-88   -5.83702343e-04
23       2.30000000e-07    0.00000000e+00    9.00000000e-01    1.00000000e+00    0.00000000e+00    5.83702343e-04    4.52680930e-13   -1.09593328e-88   -5.83702343e-04
24       2.40000000e-07    0.00000000e+00    9.00000000e-01    1.00000000e+00    0.00000000e+00    5.83702343e-04    4.52680930e-13   -8.12892660e-89   -5.83702343e-04
25       2.50000000e-07    0.00000000e+00    9.00000000e-01    1.00000000e+00    0.00000000e+00    5.83702343e-04    4.52680930e-13   -5.29852040e-89   -5.83702343e-04
26       2.60000000e-07    0.00000000e+00    9.00000000e-01    1.00000000e+00    0.00000000e+00    5.83702343e-04    4.52680930e-13   -2.46811420e-89   -5.83702343e-04
27       2.70000000e-07    0.00000000e+00    9.00000000e-01    1.00000000e+00    0.00000000e+00    5.83702343e-04    4.52680930e-13   -1.97859734e-90   -5.83702343e-04
28       2.80000000e-07    0.00000000e+00    9.00000000e-01    1.00000000e+00    0.00000000e+00    5.83702343e-04    4.52680930e-13   -1.74363891e-89   -5.83702343e-04
29       2.90000000e-07    0.00000000e+00    9.00000000e-01    1.00000000e+00    0.00000000e+00    5.83702343e-04    4.52680930e-13   -3.28941808e-89   -5.83702343e-04
30       3.00000000e-07    0.00000000e+00    9.00000000e-01    1.00000000e+00    0.00000000e+00    5.83702343e-04    4.52680930e-13   -4.83519725e-89   -5.83702343e-04
31       3.10000000e-07    0.00000000e+00    9.00000000e-01    1.00000000e+00    0.00000000e+00    5.83702343e-04    4.52680930e-13   -6.38097642e-89   -5.83702343e-04
32       3.20000000e-07    0.00000000e+00    9.00000000e-01    1.00000000e+00    0.00000000e+00    5.83702343e-04    4.52680930e-13   -7.92675559e-89   -5.83702343e-04
33       3.30000000e-07    0.00000000e+00    9.00000000e-01    1.00000000e+00    0.00000000e+00    5.83702343e-04    4.52680930e-13   -9.47253476e-89   -5.83702343e-04
34       3.40000000e-07    0.00000000e+00    9.00000000e-01    1.00000000e+00    0.00000000e+00    5.83702343e-04    4.52680930e-13   -1.10183139e-88   -5.83702343e-04
35       3.50000000e-07    0.00000000e+00    9.00000000e-01    1.00000000e+00    0.00000000e+00    5.83702343e-04    4.52680930e-13   -1.25640931e-88   -5.83702343e-04
36       3.60000000e-07    0.00000000e+00    9.00000000e-01    1.00000000e+00    0.00000000e+00    5.83702343e-04    4.52680930e-13   -1.41098723e-88   -5.83702343e-04
37       3.70000000e-07    0.00000000e+00    9.00000000e-01    1.00000000e+00    0.00000000e+00    5.83702343e-04    4.52680930e-13   -1.56556515e-88   -5.83702343e-04
38       3.80000000e-07    0.00000000e+00    9.00000000e-01    1.00000000e+00    0.00000000e+00    5.83702343e-04    4.52680930e-13   -1.72014306e-88   -5.83702343e-04
39       3.90000000e-07    0.00000000e+00    9.00000000e-01    1.00000000e+00    0.00000000e+00    5.83702343e-04    4.52680930e-13   -1.87472098e-88   -5.83702343e-04
40       4.00000000e-07    0.00000000e+00    9.00000000e-01    1.00000000e+00    0.00000000e+00    5.83702343e-04    4.52680930e-13   -2.02929890e-88   -5.83702343e-04
41       4.10000000e-07    0.00000000e+00    9.00000000e-01    1.00000000e+00    0.00000000e+00    5.83702343e-04    4.52680930e-13   -2.18387681e-88   -5.83702343e-04
42       4.20000000e-07    0.00000000e+00    9.00000000e-01    1.00000000e+00    0.00000000e+00    5.83702343e-04    4.52680930e-13   -2.28615456e-88   -5.83702343e-04
43       4.30000000e-07    0.00000000e+00    9.00000000e-01    1.00000000e+00    0.00000000e+00    5.83702343e-04    4.52680930e-13   -2.03213739e-88   -5.83702343e-04
44       4.40000000e-07    0.00000000e+00    9.00000000e-01    1.00000000e+00    0.00000000e+00    5.83702343e-04    4.52680930e-13   -1.77812021e-88   -5.83702343e-04
45       4.50000000e-07    0.00000000e+00    9.00000000e-01    1.00000000e+00    0.00000000e+00    5.83702343e-04    4.52680930e-13   -1.52410304e-88   -5.83702343e-04
46       4.60000000e-07    0.00000000e+00    9.00000000e-01    1.00000000e+00    0.00000000e+00    5.83702343e-04    4.52680930e-13   -1.27008587e-88   -5.83702343e-04
47       4.70000000e-07    0.00000000e+00    9.00000000e-01    1.00000000e+00    0.00000000e+00    5.83702343e-04    4.52680930e-13   -1.01606869e-88   -5.83702343e-04
48       4.80000000e-07    0.00000000e+00    9.00000000e-01    1.00000000e+00    0.00000000e+00    5.83702343e-04    4.52680930e-13   -7.62051520e-89   -5.83702343e-04
49       4.90000000e-07    0.00000000e+00    9.00000000e-01    1.00000000e+00    0.00000000e+00    5.83702343e-04    4.52680930e-13   -5.08034347e-89   -5.83702343e-04
50       5.00000000e-07    0.00000000e+00    9.00000000e-01    1.00000000e+00    0.00000000e+00    5.83702343e-04    4.52680930e-13   -2.54017173e-89   -5.83702343e-04
51       5.10000000e-07    0.00000000e+00    9.00000000e-01    1.00000000e+00    0.00000000e+00    5.83702343e-04    4.52680930e-13   2.23239725e-103   -5.83702343e-04
52       5.10000000e-07    0.00000000e+00    9.00000000e-01    1.00000000e+00    0.00000000e+00    5.83702343e-04    4.52680929e-13  -3.14768012e-101   -5.83702343e-04
53       5.20000000e-07    0.00000000e+00    9.00000000e-01    9.00000000e-01    0.00000000e+00    4.92486426e-04   -1.67863006e-09   -1.33978373e-63   -4.92484748e-04
54       5.30000000e-07    0.00000000e+00    9.00000000e-01    8.00000000e-01    0.00000000e+00    3.99924620e-04   -8.00384340e-09   -4.25900955e-12   -3.99916612e-04
55       5.40000000e-07    0.00000000e+00    9.00000000e-01    7.00000000e-01    0.00000000e+00    3.08172037e-04   -2.30837107e-09   -1.17027230e-11   -3.08169717e-04
56       5.50000000e-07    0.00000000e+00    9.00000000e-01    6.00000000e-01    0.00000000e+00    2.26459214e-04   -5.81645914e-10   -1.92817727e-11   -2.26458614e-04
57       5.60000000e-07    0.00000000e+00    9.00000000e-01    5.00000000e-01    0.00000000e+00    1.55301010e-04   -3.02719344e-09   -2.70030990e-11   -1.55297956e-04
58       5.70000000e-07    0.00000000e+00    9.00000000e-01    4.00000000e-01    0.00000000e+00    8.41428062e-05   -5.47274097e-09   -3.47244254e-11   -8.41372987e-05
59       5.80000000e-07    0.00000000e+00    9.00000000e-01    3.00000000e-01    0.00000000e+00    2.82651074e-05   -6.47375269e-09   -4.24554328e-11   -2.82585912e-05
60       5.90000000e-07    0.00000000e+00    9.00000000e-01    2.00000000e-01    0.00000000e+00    1.88463191e-05   -3.08279190e-09   -5.02158748e-11   -1.88431861e-05
61       6.00000000e-07    0.00000000e+00    9.00000000e-01    1.00000000e-01    0.00000000e+00    9.42753075e-06    3.08168895e-10   -5.79763169e-11   -9.42778095e-06
62       6.10000000e-07    0.00000000e+00    9.00000000e-01    0.00000000e+00    0.00000000e+00    8.74240893e-09    3.69912969e-09   -6.57367589e-11   -1.23758019e-08
63       6.10000000e-07    0.00000000e+00    9.00000000e-01    0.00000000e+00    0.00000000e+00    8.74240893e-09    3.69912969e-09   -6.57367589e-11   -1.23758019e-08
64       6.20000000e-07    0.00000000e+00    9.00000000e-01    0.00000000e+00    0.00000000e+00    1.03682882e-08   -9.96016552e-14   -6.57367589e-11   -1.03024518e-08
65       6.30000000e-07    0.00000000e+00    9.00000000e-01    0.00000000e+00    0.00000000e+00    1.03682882e-08   -9.96016852e-14   -6.57367589e-11   -1.03024518e-08
66       6.40000000e-07    0.00000000e+00    9.00000000e-01    0.00000000e+00    0.00000000e+00    1.03682882e-08   -9.96016852e-14   -6.57367589e-11   -1.03024518e-08
67       6.50000000e-07    0.00000000e+00    9.00000000e-01    0.00000000e+00    0.00000000e+00    1.03682882e-08   -9.96016852e-14   -6.57367589e-11   -1.03024518e-08
68       6.60000000e-07    0.00000000e+00    9.00000000e-01    0.00000000e+00    0.00000000e+00    1.03682882e-08   -9.96016852e-14   -6.57367589e-11   -1.03024518e-08
69       6.70000000e-07    0.00000000e+00    9.00000000e-01    0.00000000e+00    0.00000000e+00    1.03682882e-08   -9.96016852e-14   -6.57367589e-11   -1.03024518e-08
70       6.80000000e-07    0.00000000e+00    9.00000000e-01    0.00000000e+00    0.00000000e+00    1.03682882e-08   -9.96016852e-14   -6.57367589e-11   -1.03024518e-08
71       6.90000000e-07    0.00000000e+00    9.00000000e-01    0.00000000e+00    0.00000000e+00    1.03682882e-08   -9.96016852e-14   -6.57367589e-11   -1.03024518e-08
72       7.00000000e-07    0.00000000e+00    9.00000000e-01    0.00000000e+00    0.00000000e+00    1.03682882e-08   -9.96016852e-14   -6.57367589e-11   -1.03024518e-08
73       7.10000000e-07    0.00000000e+00    9.00000000e-01    0.00000000e+00    0.00000000e+00    1.03682882e-08   -9.96016852e-14   -6.57367589e-11   -1.03024518e-08
74       7.20000000e-07    0.00000000e+00    9.00000000e-01    0.00000000e+00    0.00000000e+00    1.03682882e-08   -9.96016852e-14   -6.57367589e-11   -1.03024518e-08
75       7.30000000e-07    0.00000000e+00    9.00000000e-01    0.00000000e+00    0.00000000e+00    1.03682882e-08   -9.96016852e-14   -6.57367589e-11   -1.03024518e-08
76       7.40000000e-07    0.00000000e+00    9.00000000e-01    0.00000000e+00    0.00000000e+00    1.03682882e-08   -9.96016852e-14   -6.57367589e-11   -1.03024518e-08
77       7.50000000e-07    0.00000000e+00    9.00000000e-01    0.00000000e+00    0.00000000e+00    1.03682882e-08   -9.96016852e-14   -6.57367589e-11   -1.03024518e-08
78       7.60000000e-07    0.00000000e+00    9.00000000e-01    0.00000000e+00    0.00000000e+00    1.03682882e-08   -9.96016852e-14   -6.57367589e-11   -1.03024518e-08
79       7.70000000e-07    0.00000000e+00    9.00000000e-01    0.00000000e+00    0.00000000e+00    1.03682882e-08   -9.96016852e-14   -6.57367589e-11   -1.03024518e-08
80       7.80000000e-07    0.00000000e+00    9.00000000e-01    0.00000000e+00    0.00000000e+00    1.03682882e-08   -9.96016852e-14   -6.57367589e-11   -1.03024518e-08
81       7.90000000e-07    0.00000000e+00    9.00000000e-01    0.00000000e+00    0.00000000e+00    1.03682882e-08   -9.96016852e-14   -6.57367589e-11   -1.03024518e-08
82       8.00000000e-07    0.00000000e+00    9.00000000e-01    0.00000000e+00    0.00000000e+00    1.03682882e-08   -9.96016852e-14   -6.57367589e-11   -1.03024518e-08
83       8.10000000e-07    0.00000000e+00    9.00000000e-01    0.00000000e+00    0.00000000e+00    1.03682882e-08   -9.96016852e-14   -6.57367589e-11   -1.03024518e-08
84       8.20000000e-07    0.00000000e+00    9.00000000e-01    0.00000000e+00    0.00000000e+00    1.03682882e-08   -9.96016852e-14   -6.57367589e-11   -1.03024518e-08
85       8.30000000e-07    0.00000000e+00    9.00000000e-01    0.00000000e+00    0.00000000e+00    1.03682882e-08   -9.96016852e-14   -6.57367589e-11   -1.03024518e-08
86       8.40000000e-07    0.00000000e+00    9.00000000e-01    0.00000000e+00    0.00000000e+00    1.03682882e-08   -9.96016852e-14   -6.57367589e-11   -1.03024518e-08
87       8.50000000e-07    0.00000000e+00    9.00000000e-01    0.00000000e+00    0.00000000e+00    1.03682882e-08   -9.96016852e-14   -6.57367589e-11   -1.03024518e-08
88       8.60000000e-07    0.00000000e+00    9.00000000e-01    0.00000000e+00    0.00000000e+00    1.03682882e-08   -9.96016852e-14   -6.57367589e-11   -1.03024518e-08
89       8.70000000e-07    0.00000000e+00    9.00000000e-01    0.00000000e+00    0.00000000e+00    1.03682882e-08   -9.96016852e-14   -6.57367589e-11   -1.03024518e-08
90       8.80000000e-07    0.00000000e+00    9.00000000e-01    0.00000000e+00    0.00000000e+00    1.03682882e-08   -9.96016852e-14   -6.57367589e-11   -1.03024518e-08
91       8.90000000e-07    0.00000000e+00    9.00000000e-01    0.00000000e+00    0.00000000e+00    1.03682882e-08   -9.96016852e-14   -6.57367589e-11   -1.03024518e-08
92       9.00000000e-07    0.00000000e+00    9.00000000e-01    0.00000000e+00    0.00000000e+00    1.03682882e-08   -9.96016852e-14   -6.57367589e-11   -1.03024518e-08
93       9.10000000e-07    0.00000000e+00    9.00000000e-01    0.00000000e+00    0.00000000e+00    1.03682882e-08   -9.96016852e-14   -6.57367589e-11   -1.03024518e-08
94       9.20000000e-07    0.00000000e+00    9.00000000e-01    0.00000000e+00    0.00000000e+00    1.03682882e-08   -9.96016852e-14   -6.57367589e-11   -1.03024518e-08
95       9.30000000e-07    0.00000000e+00    9.00000000e-01    0.00000000e+00    0.00000000e+00    1.03682882e-08   -9.96016852e-14   -6.57367589e-11   -1.03024518e-08
96       9.40000000e-07    0.00000000e+00    9.00000000e-01    0.00000000e+00    0.00000000e+00    1.03682882e-08   -9.96016852e-14   -6.57367589e-11   -1.03024518e-08
97       9.50000000e-07    0.00000000e+00    9.00000000e-01    0.00000000e+00    0.00000000e+00    1.03682882e-08   -9.96016852e-14   -6.57367589e-11   -1.03024518e-08
98       9.60000000e-07    0.00000000e+00    9.00000000e-01    0.00000000e+00    0.00000000e+00    1.03682882e-08   -9.96016852e-14   -6.57367589e-11   -1.03024518e-08
99       9.70000000e-07    0.00000000e+00    9.00000000e-01    0.00000000e+00    0.00000000e+00    1.03682882e-08   -9.96016852e-14   -6.57367589e-11   -1.03024518e-08
100      9.80000000e-07    0.00000000e+00    9.00000000e-01    0.00000000e+00    0.00000000e+00    1.03682882e-08   -9.96016852e-14   -6.57367589e-11   -1.03024518e-08
101      9.90000000e-07    0.00000000e+00    9.00000000e-01    0.00000000e+00    0.00000000e+00    1.03682882e-08   -9.96016852e-14   -6.57367589e-11   -1.03024518e-08
102      1.00000000e-06    0.00000000e+00    9.00000000e-01    0.00000000e+00    0.00000000e+00    1.03682882e-08   -9.96016852e-14   -6.57367589e-11   -1.03024518e-08
103      1.01000000e-06    0.00000000e+00    9.00000000e-01    0.00000000e+00    0.00000000e+00    1.03682882e-08   -9.96016852e-14   -6.57367589e-11   -1.03024518e-08
104      1.02000000e-06    0.00000000e+00    9.00000000e-01    0.00000000e+00    0.00000000e+00    1.03682882e-08   -9.96016852e-14   -6.57367589e-11   -1.03024518e-08
105      1.03000000e-06    0.00000000e+00    9.00000000e-01    0.00000000e+00    0.00000000e+00    1.03682882e-08   -9.96016852e-14   -6.57367589e-11   -1.03024518e-08
106      1.04000000e-06    0.00000000e+00    9.00000000e-01    0.00000000e+00    0.00000000e+00    1.03682882e-08   -9.96016852e-14   -6.57367589e-11   -1.03024518e-08
107      1.05000000e-06    0.00000000e+00    9.00000000e-01    0.00000000e+00    0.00000000e+00    1.03682882e-08   -9.96016852e-14   -6.57367589e-11   -1.03024518e-08
108      1.06000000e-06    0.00000000e+00    9.00000000e-01    0.00000000e+00    0.00000000e+00    1.03682882e-08   -9.96016852e-14   -6.57367589e-11   -1.03024518e-08
109      1.07000000e-06    0.00000000e+00    9.00000000e-01    0.00000000e+00    0.00000000e+00    1.03682882e-08   -9.96016852e-14   -6.57367589e-11   -1.03024518e-08
110      1.08000000e-06    0.00000000e+00    9.00000000e-01    0.00000000e+00    0.00000000e+00    1.03682882e-08   -9.96016852e-14   -6.57367589e-11   -1.03024518e-08
111      1.09000000e-06    0.00000000e+00    9.00000000e-01    0.00000000e+00    0.00000000e+00    1.03682882e-08   -9.96016852e-14   -6.57367589e-11   -1.03024518e-08
112      1.10000000e-06    0.00000000e+00    9.00000000e-01    0.00000000e+00    0.00000000e+00    1.03682882e-08   -9.96016852e-14   -6.57367589e-11   -1.03024518e-08
113      1.11000000e-06    0.00000000e+00    9.00000000e-01    0.00000000e+00    0.00000000e+00    1.03682882e-08   -9.96016852e-14   -6.57367589e-11   -1.03024518e-08
114      1.12000000e-06    0.00000000e+00    9.00000000e-01    0.00000000e+00    0.00000000e+00    1.03682882e-08   -9.96016852e-14   -6.57367589e-11   -1.03024518e-08
115      1.13000000e-06    0.00000000e+00    9.00000000e-01    0.00000000e+00    0.00000000e+00    1.03682882e-08   -9.96016852e-14   -6.57367589e-11   -1.03024518e-08
116      1.14000000e-06    0.00000000e+00    9.00000000e-01    0.00000000e+00    0.00000000e+00    1.03682882e-08   -9.96016852e-14   -6.57367589e-11   -1.03024518e-08
117      1.15000000e-06    0.00000000e+00    9.00000000e-01    0.00000000e+00    0.00000000e+00    1.03682882e-08   -9.96016852e-14   -6.57367589e-11   -1.03024518e-08
