Index       TIME             V(BULK)          V(DRAIN)           V(GATE)          V(SOURCE)       {-I(VDRAIN)}       {-I(VGATE)}       {-I(VBULK)}      {-I(VSOURCE)}  
0        0.00000000e+00    0.00000000e+00    1.00000000e+00    0.00000000e+00    0.00000000e+00    1.26713041e-08   -1.59293913e-13   -8.26119055e-11   -1.25885329e-08
1        1.00000000e-08    0.00000000e+00    1.00000000e+00    0.00000000e+00    0.00000000e+00    1.26713041e-08   -1.59293913e-13   -8.26119055e-11   -1.25885329e-08
2        2.00000000e-08    0.00000000e+00    1.00000000e+00    1.00000000e-01    0.00000000e+00    3.10894525e-07    1.48069689e-09   -7.38826032e-11   -3.12301339e-07
3        3.00000000e-08    0.00000000e+00    1.00000000e+00    2.00000000e-01    0.00000000e+00    6.44964852e-06    1.85354125e-09   -6.51562474e-11   -6.45143691e-06
4        4.00000000e-08    0.00000000e+00    1.00000000e+00    3.00000000e-01    0.00000000e+00    3.46451757e-05    2.41036700e-09   -5.64354505e-11   -3.46475296e-05
5        5.00000000e-08    0.00000000e+00    1.00000000e+00    4.00000000e-01    0.00000000e+00    8.81935378e-05    3.05566313e-09   -4.77207170e-11   -8.81965457e-05
6        6.00000000e-08    0.00000000e+00    1.00000000e+00    5.00000000e-01    0.00000000e+00    1.41741900e-04    3.70095926e-09   -3.90059835e-11   -1.41745562e-04
7        7.00000000e-08    0.00000000e+00    1.00000000e+00    6.00000000e-01    0.00000000e+00    2.28440748e-04    3.86454283e-09   -3.11149307e-11   -2.28444581e-04
8        8.00000000e-08    0.00000000e+00    1.00000000e+00    7.00000000e-01    0.00000000e+00    3.19660116e-04    3.96243833e-09   -2.33361980e-11   -3.19664055e-04
9        9.00000000e-08    0.00000000e+00    1.00000000e+00    8.00000000e-01    0.00000000e+00    4.10879485e-04    4.06033382e-09   -1.55574654e-11   -4.10883530e-04
10       1.00000000e-07    0.00000000e+00    1.00000000e+00    9.00000000e-01    0.00000000e+00    5.02098853e-04    4.15822932e-09   -7.77873268e-12   -5.02103004e-04
11       1.10000000e-07    0.00000000e+00    1.00000000e+00    1.00000000e+00    0.00000000e+00    5.93318222e-04    4.25612481e-09   -3.16655078e-25   -5.93322478e-04
12       1.20000000e-07    0.00000000e+00    1.00000000e+00    1.00000000e+00    0.00000000e+00    5.93320207e-04    4.47476278e-13   -0.00000000e+00   -5.93320208e-04
13       1.30000000e-07    0.00000000e+00    1.00000000e+00    1.00000000e+00    0.00000000e+00    5.93320207e-04    4.47476177e-13   -0.00000000e+00   -5.93320208e-04
14       1.40000000e-07    0.00000000e+00    1.00000000e+00    1.00000000e+00    0.00000000e+00    5.93320207e-04    4.47476177e-13   -0.00000000e+00   -5.93320208e-04
15       1.50000000e-07    0.00000000e+00    1.00000000e+00    1.00000000e+00    0.00000000e+00    5.93320207e-04    4.47476177e-13   -2.64670389e-89   -5.93320208e-04
16       1.60000000e-07    0.00000000e+00    1.00000000e+00    1.00000000e+00    0.00000000e+00    5.93320207e-04    4.47476177e-13   -9.00897285e-89   -5.93320208e-04
17       1.70000000e-07    0.00000000e+00    1.00000000e+00    1.00000000e+00    0.00000000e+00    5.93320207e-04    4.47476177e-13   -1.53712418e-88   -5.93320208e-04
18       1.80000000e-07    0.00000000e+00    1.00000000e+00    1.00000000e+00    0.00000000e+00    5.93320207e-04    4.47476177e-13   -2.17335108e-88   -5.93320208e-04
19       1.90000000e-07    0.00000000e+00    1.00000000e+00    1.00000000e+00    0.00000000e+00    5.93320207e-04    4.47476177e-13   -2.50418906e-88   -5.93320208e-04
20       2.00000000e-07    0.00000000e+00    1.00000000e+00    1.00000000e+00    0.00000000e+00    5.93320207e-04    4.47476177e-13   -2.18607561e-88   -5.93320208e-04
21       2.10000000e-07    0.00000000e+00    1.00000000e+00    1.00000000e+00    0.00000000e+00    5.93320207e-04    4.47476177e-13   -1.86796217e-88   -5.93320208e-04
22       2.20000000e-07    0.00000000e+00    1.00000000e+00    1.00000000e+00    0.00000000e+00    5.93320207e-04    4.47476177e-13   -1.54984872e-88   -5.93320208e-04
23       2.30000000e-07    0.00000000e+00    1.00000000e+00    1.00000000e+00    0.00000000e+00    5.93320207e-04    4.47476177e-13   -1.23173527e-88   -5.93320208e-04
24       2.40000000e-07    0.00000000e+00    1.00000000e+00    1.00000000e+00    0.00000000e+00    5.93320207e-04    4.47476177e-13   -9.13621823e-89   -5.93320208e-04
25       2.50000000e-07    0.00000000e+00    1.00000000e+00    1.00000000e+00    0.00000000e+00    5.93320207e-04    4.47476177e-13   -5.95508375e-89   -5.93320208e-04
26       2.60000000e-07    0.00000000e+00    1.00000000e+00    1.00000000e+00    0.00000000e+00    5.93320207e-04    4.47476177e-13   -2.77394927e-89   -5.93320208e-04
27       2.70000000e-07    0.00000000e+00    1.00000000e+00    1.00000000e+00    0.00000000e+00    5.93320207e-04    4.47476177e-13   -2.22377418e-90   -5.93320208e-04
28       2.80000000e-07    0.00000000e+00    1.00000000e+00    1.00000000e+00    0.00000000e+00    5.93320207e-04    4.47476177e-13   -1.95970100e-89   -5.93320208e-04
29       2.90000000e-07    0.00000000e+00    1.00000000e+00    1.00000000e+00    0.00000000e+00    5.93320207e-04    4.47476177e-13   -3.69702457e-89   -5.93320208e-04
30       3.00000000e-07    0.00000000e+00    1.00000000e+00    1.00000000e+00    0.00000000e+00    5.93320207e-04    4.47476177e-13   -5.43434815e-89   -5.93320208e-04
31       3.10000000e-07    0.00000000e+00    1.00000000e+00    1.00000000e+00    0.00000000e+00    5.93320207e-04    4.47476177e-13   -7.17167173e-89   -5.93320208e-04
32       3.20000000e-07    0.00000000e+00    1.00000000e+00    1.00000000e+00    0.00000000e+00    5.93320207e-04    4.47476177e-13   -8.90899531e-89   -5.93320208e-04
33       3.30000000e-07    0.00000000e+00    1.00000000e+00    1.00000000e+00    0.00000000e+00    5.93320207e-04    4.47476177e-13   -1.06463189e-88   -5.93320208e-04
34       3.40000000e-07    0.00000000e+00    1.00000000e+00    1.00000000e+00    0.00000000e+00    5.93320207e-04    4.47476177e-13   -1.23836425e-88   -5.93320208e-04
35       3.50000000e-07    0.00000000e+00    1.00000000e+00    1.00000000e+00    0.00000000e+00    5.93320207e-04    4.47476177e-13   -1.41209660e-88   -5.93320208e-04
36       3.60000000e-07    0.00000000e+00    1.00000000e+00    1.00000000e+00    0.00000000e+00    5.93320207e-04    4.47476177e-13   -1.58582896e-88   -5.93320208e-04
37       3.70000000e-07    0.00000000e+00    1.00000000e+00    1.00000000e+00    0.00000000e+00    5.93320207e-04    4.47476177e-13   -1.75956132e-88   -5.93320208e-04
38       3.80000000e-07    0.00000000e+00    1.00000000e+00    1.00000000e+00    0.00000000e+00    5.93320207e-04    4.47476177e-13   -1.93329368e-88   -5.93320208e-04
39       3.90000000e-07    0.00000000e+00    1.00000000e+00    1.00000000e+00    0.00000000e+00    5.93320207e-04    4.47476177e-13   -2.10702603e-88   -5.93320208e-04
40       4.00000000e-07    0.00000000e+00    1.00000000e+00    1.00000000e+00    0.00000000e+00    5.93320207e-04    4.47476177e-13   -2.28075839e-88   -5.93320208e-04
41       4.10000000e-07    0.00000000e+00    1.00000000e+00    1.00000000e+00    0.00000000e+00    5.93320207e-04    4.47476177e-13   -2.45449075e-88   -5.93320208e-04
42       4.20000000e-07    0.00000000e+00    1.00000000e+00    1.00000000e+00    0.00000000e+00    5.93320207e-04    4.47476177e-13   -2.56944219e-88   -5.93320208e-04
43       4.30000000e-07    0.00000000e+00    1.00000000e+00    1.00000000e+00    0.00000000e+00    5.93320207e-04    4.47476177e-13   -2.28394861e-88   -5.93320208e-04
44       4.40000000e-07    0.00000000e+00    1.00000000e+00    1.00000000e+00    0.00000000e+00    5.93320207e-04    4.47476177e-13   -1.99845504e-88   -5.93320208e-04
45       4.50000000e-07    0.00000000e+00    1.00000000e+00    1.00000000e+00    0.00000000e+00    5.93320207e-04    4.47476177e-13   -1.71296146e-88   -5.93320208e-04
46       4.60000000e-07    0.00000000e+00    1.00000000e+00    1.00000000e+00    0.00000000e+00    5.93320207e-04    4.47476177e-13   -1.42746788e-88   -5.93320208e-04
47       4.70000000e-07    0.00000000e+00    1.00000000e+00    1.00000000e+00    0.00000000e+00    5.93320207e-04    4.47476177e-13   -1.14197431e-88   -5.93320208e-04
48       4.80000000e-07    0.00000000e+00    1.00000000e+00    1.00000000e+00    0.00000000e+00    5.93320207e-04    4.47476177e-13   -8.56480730e-89   -5.93320208e-04
49       4.90000000e-07    0.00000000e+00    1.00000000e+00    1.00000000e+00    0.00000000e+00    5.93320207e-04    4.47476177e-13   -5.70987153e-89   -5.93320208e-04
50       5.00000000e-07    0.00000000e+00    1.00000000e+00    1.00000000e+00    0.00000000e+00    5.93320207e-04    4.47476177e-13   -2.85493577e-89   -5.93320208e-04
51       5.10000000e-07    0.00000000e+00    1.00000000e+00    1.00000000e+00    0.00000000e+00    5.93320207e-04    4.47476177e-13  -1.11619862e-103   -5.93320208e-04
52       5.10000000e-07    0.00000000e+00    1.00000000e+00    1.00000000e+00    0.00000000e+00    5.93320207e-04    4.47476176e-13   -8.46921068e-27   -5.93320208e-04
53       5.20000000e-07    0.00000000e+00    1.00000000e+00    9.00000000e-01    0.00000000e+00    4.99621263e-04   -1.66849255e-09   -4.75654846e-12   -4.99619590e-04
54       5.30000000e-07    0.00000000e+00    1.00000000e+00    8.00000000e-01    0.00000000e+00    4.05331933e-04   -7.98562350e-09   -1.30606510e-11   -4.05323934e-04
55       5.40000000e-07    0.00000000e+00    1.00000000e+00    7.00000000e-01    0.00000000e+00    3.12445226e-04   -2.29640137e-09   -2.16685319e-11   -3.12442908e-04
56       5.50000000e-07    0.00000000e+00    1.00000000e+00    6.00000000e-01    0.00000000e+00    2.29805302e-04   -5.74182916e-10   -3.03221940e-11   -2.29804698e-04
57       5.60000000e-07    0.00000000e+00    1.00000000e+00    5.00000000e-01    0.00000000e+00    1.57937637e-04   -3.02240421e-09   -3.90239853e-11   -1.57934576e-04
58       5.70000000e-07    0.00000000e+00    1.00000000e+00    4.00000000e-01    0.00000000e+00    8.60699723e-05   -5.47062550e-09   -4.77257765e-11   -8.60644539e-05
59       5.80000000e-07    0.00000000e+00    1.00000000e+00    3.00000000e-01    0.00000000e+00    2.95523939e-05   -6.47511328e-09   -5.64335858e-11   -2.95458623e-05
60       5.90000000e-07    0.00000000e+00    1.00000000e+00    2.00000000e-01    0.00000000e+00    1.97052804e-05   -3.09006783e-09   -6.51596923e-11   -1.97021252e-05
61       6.00000000e-07    0.00000000e+00    1.00000000e+00    1.00000000e-01    0.00000000e+00    9.85816696e-06    2.94977620e-10   -7.38857989e-11   -9.85838805e-06
62       6.10000000e-07    0.00000000e+00    1.00000000e+00    0.00000000e+00    0.00000000e+00    1.10534980e-08    3.68002307e-09   -8.26119055e-11   -1.46509092e-08
63       6.10000000e-07    0.00000000e+00    1.00000000e+00    0.00000000e+00    0.00000000e+00    1.10534980e-08    3.68002307e-09   -8.26119055e-11   -1.46509092e-08
64       6.20000000e-07    0.00000000e+00    1.00000000e+00    0.00000000e+00    0.00000000e+00    1.26713041e-08   -1.59293883e-13   -8.26119055e-11   -1.25885329e-08
65       6.30000000e-07    0.00000000e+00    1.00000000e+00    0.00000000e+00    0.00000000e+00    1.26713041e-08   -1.59293913e-13   -8.26119055e-11   -1.25885329e-08
66       6.40000000e-07    0.00000000e+00    1.00000000e+00    0.00000000e+00    0.00000000e+00    1.26713041e-08   -1.59293913e-13   -8.26119055e-11   -1.25885329e-08
67       6.50000000e-07    0.00000000e+00    1.00000000e+00    0.00000000e+00    0.00000000e+00    1.26713041e-08   -1.59293913e-13   -8.26119055e-11   -1.25885329e-08
68       6.60000000e-07    0.00000000e+00    1.00000000e+00    0.00000000e+00    0.00000000e+00    1.26713041e-08   -1.59293913e-13   -8.26119055e-11   -1.25885329e-08
69       6.70000000e-07    0.00000000e+00    1.00000000e+00    0.00000000e+00    0.00000000e+00    1.26713041e-08   -1.59293913e-13   -8.26119055e-11   -1.25885329e-08
70       6.80000000e-07    0.00000000e+00    1.00000000e+00    0.00000000e+00    0.00000000e+00    1.26713041e-08   -1.59293913e-13   -8.26119055e-11   -1.25885329e-08
71       6.90000000e-07    0.00000000e+00    1.00000000e+00    0.00000000e+00    0.00000000e+00    1.26713041e-08   -1.59293913e-13   -8.26119055e-11   -1.25885329e-08
72       7.00000000e-07    0.00000000e+00    1.00000000e+00    0.00000000e+00    0.00000000e+00    1.26713041e-08   -1.59293913e-13   -8.26119055e-11   -1.25885329e-08
73       7.10000000e-07    0.00000000e+00    1.00000000e+00    0.00000000e+00    0.00000000e+00    1.26713041e-08   -1.59293913e-13   -8.26119055e-11   -1.25885329e-08
74       7.20000000e-07    0.00000000e+00    1.00000000e+00    0.00000000e+00    0.00000000e+00    1.26713041e-08   -1.59293913e-13   -8.26119055e-11   -1.25885329e-08
75       7.30000000e-07    0.00000000e+00    1.00000000e+00    0.00000000e+00    0.00000000e+00    1.26713041e-08   -1.59293913e-13   -8.26119055e-11   -1.25885329e-08
76       7.40000000e-07    0.00000000e+00    1.00000000e+00    0.00000000e+00    0.00000000e+00    1.26713041e-08   -1.59293913e-13   -8.26119055e-11   -1.25885329e-08
77       7.50000000e-07    0.00000000e+00    1.00000000e+00    0.00000000e+00    0.00000000e+00    1.26713041e-08   -1.59293913e-13   -8.26119055e-11   -1.25885329e-08
78       7.60000000e-07    0.00000000e+00    1.00000000e+00    0.00000000e+00    0.00000000e+00    1.26713041e-08   -1.59293913e-13   -8.26119055e-11   -1.25885329e-08
79       7.70000000e-07    0.00000000e+00    1.00000000e+00    0.00000000e+00    0.00000000e+00    1.26713041e-08   -1.59293913e-13   -8.26119055e-11   -1.25885329e-08
80       7.80000000e-07    0.00000000e+00    1.00000000e+00    0.00000000e+00    0.00000000e+00    1.26713041e-08   -1.59293913e-13   -8.26119055e-11   -1.25885329e-08
81       7.90000000e-07    0.00000000e+00    1.00000000e+00    0.00000000e+00    0.00000000e+00    1.26713041e-08   -1.59293913e-13   -8.26119055e-11   -1.25885329e-08
82       8.00000000e-07    0.00000000e+00    1.00000000e+00    0.00000000e+00    0.00000000e+00    1.26713041e-08   -1.59293913e-13   -8.26119055e-11   -1.25885329e-08
83       8.10000000e-07    0.00000000e+00    1.00000000e+00    0.00000000e+00    0.00000000e+00    1.26713041e-08   -1.59293913e-13   -8.26119055e-11   -1.25885329e-08
84       8.20000000e-07    0.00000000e+00    1.00000000e+00    0.00000000e+00    0.00000000e+00    1.26713041e-08   -1.59293913e-13   -8.26119055e-11   -1.25885329e-08
85       8.30000000e-07    0.00000000e+00    1.00000000e+00    0.00000000e+00    0.00000000e+00    1.26713041e-08   -1.59293913e-13   -8.26119055e-11   -1.25885329e-08
86       8.40000000e-07    0.00000000e+00    1.00000000e+00    0.00000000e+00    0.00000000e+00    1.26713041e-08   -1.59293913e-13   -8.26119055e-11   -1.25885329e-08
87       8.50000000e-07    0.00000000e+00    1.00000000e+00    0.00000000e+00    0.00000000e+00    1.26713041e-08   -1.59293913e-13   -8.26119055e-11   -1.25885329e-08
88       8.60000000e-07    0.00000000e+00    1.00000000e+00    0.00000000e+00    0.00000000e+00    1.26713041e-08   -1.59293913e-13   -8.26119055e-11   -1.25885329e-08
89       8.70000000e-07    0.00000000e+00    1.00000000e+00    0.00000000e+00    0.00000000e+00    1.26713041e-08   -1.59293913e-13   -8.26119055e-11   -1.25885329e-08
90       8.80000000e-07    0.00000000e+00    1.00000000e+00    0.00000000e+00    0.00000000e+00    1.26713041e-08   -1.59293913e-13   -8.26119055e-11   -1.25885329e-08
91       8.90000000e-07    0.00000000e+00    1.00000000e+00    0.00000000e+00    0.00000000e+00    1.26713041e-08   -1.59293913e-13   -8.26119055e-11   -1.25885329e-08
92       9.00000000e-07    0.00000000e+00    1.00000000e+00    0.00000000e+00    0.00000000e+00    1.26713041e-08   -1.59293913e-13   -8.26119055e-11   -1.25885329e-08
93       9.10000000e-07    0.00000000e+00    1.00000000e+00    0.00000000e+00    0.00000000e+00    1.26713041e-08   -1.59293913e-13   -8.26119055e-11   -1.25885329e-08
94       9.20000000e-07    0.00000000e+00    1.00000000e+00    0.00000000e+00    0.00000000e+00    1.26713041e-08   -1.59293913e-13   -8.26119055e-11   -1.25885329e-08
95       9.30000000e-07    0.00000000e+00    1.00000000e+00    0.00000000e+00    0.00000000e+00    1.26713041e-08   -1.59293913e-13   -8.26119055e-11   -1.25885329e-08
96       9.40000000e-07    0.00000000e+00    1.00000000e+00    0.00000000e+00    0.00000000e+00    1.26713041e-08   -1.59293913e-13   -8.26119055e-11   -1.25885329e-08
97       9.50000000e-07    0.00000000e+00    1.00000000e+00    0.00000000e+00    0.00000000e+00    1.26713041e-08   -1.59293913e-13   -8.26119055e-11   -1.25885329e-08
98       9.60000000e-07    0.00000000e+00    1.00000000e+00    0.00000000e+00    0.00000000e+00    1.26713041e-08   -1.59293913e-13   -8.26119055e-11   -1.25885329e-08
99       9.70000000e-07    0.00000000e+00    1.00000000e+00    0.00000000e+00    0.00000000e+00    1.26713041e-08   -1.59293913e-13   -8.26119055e-11   -1.25885329e-08
100      9.80000000e-07    0.00000000e+00    1.00000000e+00    0.00000000e+00    0.00000000e+00    1.26713041e-08   -1.59293913e-13   -8.26119055e-11   -1.25885329e-08
101      9.90000000e-07    0.00000000e+00    1.00000000e+00    0.00000000e+00    0.00000000e+00    1.26713041e-08   -1.59293913e-13   -8.26119055e-11   -1.25885329e-08
102      1.00000000e-06    0.00000000e+00    1.00000000e+00    0.00000000e+00    0.00000000e+00    1.26713041e-08   -1.59293913e-13   -8.26119055e-11   -1.25885329e-08
103      1.01000000e-06    0.00000000e+00    1.00000000e+00    0.00000000e+00    0.00000000e+00    1.26713041e-08   -1.59293913e-13   -8.26119055e-11   -1.25885329e-08
104      1.02000000e-06    0.00000000e+00    1.00000000e+00    0.00000000e+00    0.00000000e+00    1.26713041e-08   -1.59293913e-13   -8.26119055e-11   -1.25885329e-08
105      1.03000000e-06    0.00000000e+00    1.00000000e+00    0.00000000e+00    0.00000000e+00    1.26713041e-08   -1.59293913e-13   -8.26119055e-11   -1.25885329e-08
106      1.04000000e-06    0.00000000e+00    1.00000000e+00    0.00000000e+00    0.00000000e+00    1.26713041e-08   -1.59293913e-13   -8.26119055e-11   -1.25885329e-08
107      1.05000000e-06    0.00000000e+00    1.00000000e+00    0.00000000e+00    0.00000000e+00    1.26713041e-08   -1.59293913e-13   -8.26119055e-11   -1.25885329e-08
108      1.06000000e-06    0.00000000e+00    1.00000000e+00    0.00000000e+00    0.00000000e+00    1.26713041e-08   -1.59293913e-13   -8.26119055e-11   -1.25885329e-08
109      1.07000000e-06    0.00000000e+00    1.00000000e+00    0.00000000e+00    0.00000000e+00    1.26713041e-08   -1.59293913e-13   -8.26119055e-11   -1.25885329e-08
110      1.08000000e-06    0.00000000e+00    1.00000000e+00    0.00000000e+00    0.00000000e+00    1.26713041e-08   -1.59293913e-13   -8.26119055e-11   -1.25885329e-08
111      1.09000000e-06    0.00000000e+00    1.00000000e+00    0.00000000e+00    0.00000000e+00    1.26713041e-08   -1.59293913e-13   -8.26119055e-11   -1.25885329e-08
112      1.10000000e-06    0.00000000e+00    1.00000000e+00    0.00000000e+00    0.00000000e+00    1.26713041e-08   -1.59293913e-13   -8.26119055e-11   -1.25885329e-08
113      1.11000000e-06    0.00000000e+00    1.00000000e+00    0.00000000e+00    0.00000000e+00    1.26713041e-08   -1.59293913e-13   -8.26119055e-11   -1.25885329e-08
114      1.12000000e-06    0.00000000e+00    1.00000000e+00    0.00000000e+00    0.00000000e+00    1.26713041e-08   -1.59293913e-13   -8.26119055e-11   -1.25885329e-08
115      1.13000000e-06    0.00000000e+00    1.00000000e+00    0.00000000e+00    0.00000000e+00    1.26713041e-08   -1.59293913e-13   -8.26119055e-11   -1.25885329e-08
116      1.14000000e-06    0.00000000e+00    1.00000000e+00    0.00000000e+00    0.00000000e+00    1.26713041e-08   -1.59293913e-13   -8.26119055e-11   -1.25885329e-08
117      1.15000000e-06    0.00000000e+00    1.00000000e+00    0.00000000e+00    0.00000000e+00    1.26713041e-08   -1.59293913e-13   -8.26119055e-11   -1.25885329e-08
