Index       TIME             V(BULK)          V(DRAIN)           V(GATE)          V(SOURCE)       {-I(VDRAIN)}       {-I(VGATE)}       {-I(VBULK)}      {-I(VSOURCE)}  
0        0.00000000e+00    0.00000000e+00    1.10000000e+00    0.00000000e+00    0.00000000e+00    1.53941160e-08   -2.59889103e-13   -9.95994664e-11   -1.52942566e-08
1        1.00000000e-08    0.00000000e+00    1.10000000e+00    0.00000000e+00    0.00000000e+00    1.53941160e-08   -2.59889103e-13   -9.95994664e-11   -1.52942566e-08
2        2.00000000e-08    0.00000000e+00    1.10000000e+00    1.00000000e-01    0.00000000e+00    3.58452394e-07    1.48540294e-09   -9.00791206e-11   -3.59847718e-07
3        3.00000000e-08    0.00000000e+00    1.10000000e+00    2.00000000e-01    0.00000000e+00    6.92415780e-06    1.87027184e-09   -8.05610965e-11   -6.92594751e-06
4        4.00000000e-08    0.00000000e+00    1.10000000e+00    3.00000000e-01    0.00000000e+00    3.57510111e-05    2.42712671e-09   -7.10471134e-11   -3.57533672e-05
5        5.00000000e-08    0.00000000e+00    1.10000000e+00    4.00000000e-01    0.00000000e+00    9.00248791e-05    3.05530286e-09   -6.15374836e-11   -9.00278728e-05
6        6.00000000e-08    0.00000000e+00    1.10000000e+00    5.00000000e-01    0.00000000e+00    1.44298747e-04    3.68347901e-09   -5.20278538e-11   -1.44302378e-04
7        7.00000000e-08    0.00000000e+00    1.10000000e+00    6.00000000e-01    0.00000000e+00    2.32025861e-04    3.84823592e-09   -4.26404569e-11   -2.32029667e-04
8        8.00000000e-08    0.00000000e+00    1.10000000e+00    7.00000000e-01    0.00000000e+00    3.24314782e-04    3.94979930e-09   -3.32697280e-11   -3.24318699e-04
9        9.00000000e-08    0.00000000e+00    1.10000000e+00    8.00000000e-01    0.00000000e+00    4.16603703e-04    4.05136268e-09   -2.38989992e-11   -4.16607730e-04
10       1.00000000e-07    0.00000000e+00    1.10000000e+00    9.00000000e-01    0.00000000e+00    5.08892624e-04    4.15292606e-09   -1.45282704e-11   -5.08896762e-04
11       1.10000000e-07    0.00000000e+00    1.10000000e+00    1.00000000e+00    0.00000000e+00    6.01181544e-04    4.25448944e-09   -5.15754160e-12   -6.01185794e-04
12       1.20000000e-07    0.00000000e+00    1.10000000e+00    1.00000000e+00    0.00000000e+00    6.01183524e-04    4.44413781e-13   -5.15754160e-12   -6.01183519e-04
13       1.30000000e-07    0.00000000e+00    1.10000000e+00    1.00000000e+00    0.00000000e+00    6.01183524e-04    4.44413680e-13   -5.15754160e-12   -6.01183519e-04
14       1.40000000e-07    0.00000000e+00    1.10000000e+00    1.00000000e+00    0.00000000e+00    6.01183524e-04    4.44413680e-13   -5.15754160e-12   -6.01183519e-04
15       1.50000000e-07    0.00000000e+00    1.10000000e+00    1.00000000e+00    0.00000000e+00    6.01183524e-04    4.44413680e-13   -5.15754160e-12   -6.01183519e-04
16       1.60000000e-07    0.00000000e+00    1.10000000e+00    1.00000000e+00    0.00000000e+00    6.01183524e-04    4.44413680e-13   -5.15754160e-12   -6.01183519e-04
17       1.70000000e-07    0.00000000e+00    1.10000000e+00    1.00000000e+00    0.00000000e+00    6.01183524e-04    4.44413680e-13   -5.15754160e-12   -6.01183519e-04
18       1.80000000e-07    0.00000000e+00    1.10000000e+00    1.00000000e+00    0.00000000e+00    6.01183524e-04    4.44413680e-13   -5.15754160e-12   -6.01183519e-04
19       1.90000000e-07    0.00000000e+00    1.10000000e+00    1.00000000e+00    0.00000000e+00    6.01183524e-04    4.44413680e-13   -5.15754160e-12   -6.01183519e-04
20       2.00000000e-07    0.00000000e+00    1.10000000e+00    1.00000000e+00    0.00000000e+00    6.01183524e-04    4.44413680e-13   -5.15754160e-12   -6.01183519e-04
21       2.10000000e-07    0.00000000e+00    1.10000000e+00    1.00000000e+00    0.00000000e+00    6.01183524e-04    4.44413680e-13   -5.15754160e-12   -6.01183519e-04
22       2.20000000e-07    0.00000000e+00    1.10000000e+00    1.00000000e+00    0.00000000e+00    6.01183524e-04    4.44413680e-13   -5.15754160e-12   -6.01183519e-04
23       2.30000000e-07    0.00000000e+00    1.10000000e+00    1.00000000e+00    0.00000000e+00    6.01183524e-04    4.44413680e-13   -5.15754160e-12   -6.01183519e-04
24       2.40000000e-07    0.00000000e+00    1.10000000e+00    1.00000000e+00    0.00000000e+00    6.01183524e-04    4.44413680e-13   -5.15754160e-12   -6.01183519e-04
25       2.50000000e-07    0.00000000e+00    1.10000000e+00    1.00000000e+00    0.00000000e+00    6.01183524e-04    4.44413680e-13   -5.15754160e-12   -6.01183519e-04
26       2.60000000e-07    0.00000000e+00    1.10000000e+00    1.00000000e+00    0.00000000e+00    6.01183524e-04    4.44413680e-13   -5.15754160e-12   -6.01183519e-04
27       2.70000000e-07    0.00000000e+00    1.10000000e+00    1.00000000e+00    0.00000000e+00    6.01183524e-04    4.44413680e-13   -5.15754160e-12   -6.01183519e-04
28       2.80000000e-07    0.00000000e+00    1.10000000e+00    1.00000000e+00    0.00000000e+00    6.01183524e-04    4.44413680e-13   -5.15754160e-12   -6.01183519e-04
29       2.90000000e-07    0.00000000e+00    1.10000000e+00    1.00000000e+00    0.00000000e+00    6.01183524e-04    4.44413680e-13   -5.15754160e-12   -6.01183519e-04
30       3.00000000e-07    0.00000000e+00    1.10000000e+00    1.00000000e+00    0.00000000e+00    6.01183524e-04    4.44413680e-13   -5.15754160e-12   -6.01183519e-04
31       3.10000000e-07    0.00000000e+00    1.10000000e+00    1.00000000e+00    0.00000000e+00    6.01183524e-04    4.44413680e-13   -5.15754160e-12   -6.01183519e-04
32       3.20000000e-07    0.00000000e+00    1.10000000e+00    1.00000000e+00    0.00000000e+00    6.01183524e-04    4.44413680e-13   -5.15754160e-12   -6.01183519e-04
33       3.30000000e-07    0.00000000e+00    1.10000000e+00    1.00000000e+00    0.00000000e+00    6.01183524e-04    4.44413680e-13   -5.15754160e-12   -6.01183519e-04
34       3.40000000e-07    0.00000000e+00    1.10000000e+00    1.00000000e+00    0.00000000e+00    6.01183524e-04    4.44413680e-13   -5.15754160e-12   -6.01183519e-04
35       3.50000000e-07    0.00000000e+00    1.10000000e+00    1.00000000e+00    0.00000000e+00    6.01183524e-04    4.44413680e-13   -5.15754160e-12   -6.01183519e-04
36       3.60000000e-07    0.00000000e+00    1.10000000e+00    1.00000000e+00    0.00000000e+00    6.01183524e-04    4.44413680e-13   -5.15754160e-12   -6.01183519e-04
37       3.70000000e-07    0.00000000e+00    1.10000000e+00    1.00000000e+00    0.00000000e+00    6.01183524e-04    4.44413680e-13   -5.15754160e-12   -6.01183519e-04
38       3.80000000e-07    0.00000000e+00    1.10000000e+00    1.00000000e+00    0.00000000e+00    6.01183524e-04    4.44413680e-13   -5.15754160e-12   -6.01183519e-04
39       3.90000000e-07    0.00000000e+00    1.10000000e+00    1.00000000e+00    0.00000000e+00    6.01183524e-04    4.44413680e-13   -5.15754160e-12   -6.01183519e-04
40       4.00000000e-07    0.00000000e+00    1.10000000e+00    1.00000000e+00    0.00000000e+00    6.01183524e-04    4.44413680e-13   -5.15754160e-12   -6.01183519e-04
41       4.10000000e-07    0.00000000e+00    1.10000000e+00    1.00000000e+00    0.00000000e+00    6.01183524e-04    4.44413680e-13   -5.15754160e-12   -6.01183519e-04
42       4.20000000e-07    0.00000000e+00    1.10000000e+00    1.00000000e+00    0.00000000e+00    6.01183524e-04    4.44413680e-13   -5.15754160e-12   -6.01183519e-04
43       4.30000000e-07    0.00000000e+00    1.10000000e+00    1.00000000e+00    0.00000000e+00    6.01183524e-04    4.44413680e-13   -5.15754160e-12   -6.01183519e-04
44       4.40000000e-07    0.00000000e+00    1.10000000e+00    1.00000000e+00    0.00000000e+00    6.01183524e-04    4.44413680e-13   -5.15754160e-12   -6.01183519e-04
45       4.50000000e-07    0.00000000e+00    1.10000000e+00    1.00000000e+00    0.00000000e+00    6.01183524e-04    4.44413680e-13   -5.15754160e-12   -6.01183519e-04
46       4.60000000e-07    0.00000000e+00    1.10000000e+00    1.00000000e+00    0.00000000e+00    6.01183524e-04    4.44413680e-13   -5.15754160e-12   -6.01183519e-04
47       4.70000000e-07    0.00000000e+00    1.10000000e+00    1.00000000e+00    0.00000000e+00    6.01183524e-04    4.44413680e-13   -5.15754160e-12   -6.01183519e-04
48       4.80000000e-07    0.00000000e+00    1.10000000e+00    1.00000000e+00    0.00000000e+00    6.01183524e-04    4.44413680e-13   -5.15754160e-12   -6.01183519e-04
49       4.90000000e-07    0.00000000e+00    1.10000000e+00    1.00000000e+00    0.00000000e+00    6.01183524e-04    4.44413680e-13   -5.15754160e-12   -6.01183519e-04
50       5.00000000e-07    0.00000000e+00    1.10000000e+00    1.00000000e+00    0.00000000e+00    6.01183524e-04    4.44413680e-13   -5.15754160e-12   -6.01183519e-04
51       5.10000000e-07    0.00000000e+00    1.10000000e+00    1.00000000e+00    0.00000000e+00    6.01183524e-04    4.44413680e-13   -5.15754160e-12   -6.01183519e-04
52       5.10000000e-07    0.00000000e+00    1.10000000e+00    1.00000000e+00    0.00000000e+00    6.01183524e-04    4.44413679e-13   -5.15754160e-12   -6.01183519e-04
53       5.20000000e-07    0.00000000e+00    1.10000000e+00    9.00000000e-01    0.00000000e+00    5.05666113e-04   -3.30407792e-09   -1.42356982e-11   -5.05662795e-04
54       5.30000000e-07    0.00000000e+00    1.10000000e+00    8.00000000e-01    0.00000000e+00    4.09933871e-04   -7.81749966e-09   -2.36033643e-11   -4.09926030e-04
55       5.40000000e-07    0.00000000e+00    1.10000000e+00    7.00000000e-01    0.00000000e+00    3.16916924e-04   -3.79129615e-09   -3.30622512e-11   -3.16913099e-04
56       5.50000000e-07    0.00000000e+00    1.10000000e+00    6.00000000e-01    0.00000000e+00    2.27920099e-04    4.38677988e-10   -4.25321198e-11   -2.27920495e-04
57       5.60000000e-07    0.00000000e+00    1.10000000e+00    5.00000000e-01    0.00000000e+00    1.65536486e-04   -1.69003619e-09   -5.20378114e-11   -1.65534744e-04
58       5.70000000e-07    0.00000000e+00    1.10000000e+00    4.00000000e-01    0.00000000e+00    1.03152874e-04   -3.81875038e-09   -6.15435031e-11   -1.03148993e-04
59       5.80000000e-07    0.00000000e+00    1.10000000e+00    3.00000000e-01    0.00000000e+00    4.07692612e-05   -5.94746456e-09   -7.10491947e-11   -4.07632426e-05
60       5.90000000e-07    0.00000000e+00    1.10000000e+00    2.00000000e-01    0.00000000e+00    8.82428890e-06   -4.74665333e-09   -8.05617887e-11   -8.81946168e-06
61       6.00000000e-07    0.00000000e+00    1.10000000e+00    1.00000000e-01    0.00000000e+00    4.41903888e-06   -5.33414361e-10   -9.00806276e-11   -4.41841538e-06
62       6.10000000e-07    0.00000000e+00    1.10000000e+00    0.00000000e+00    0.00000000e+00    1.37888594e-08    3.67982461e-09   -9.95994664e-11   -1.73690845e-08
63       6.10000000e-07    0.00000000e+00    1.10000000e+00    0.00000000e+00    0.00000000e+00    1.37888594e-08    3.67982461e-09   -9.95994664e-11   -1.73690845e-08
64       6.20000000e-07    0.00000000e+00    1.10000000e+00    0.00000000e+00    0.00000000e+00    1.53941160e-08   -2.59889073e-13   -9.95994664e-11   -1.52942566e-08
65       6.30000000e-07    0.00000000e+00    1.10000000e+00    0.00000000e+00    0.00000000e+00    1.53941160e-08   -2.59889099e-13   -9.95994664e-11   -1.52942566e-08
66       6.40000000e-07    0.00000000e+00    1.10000000e+00    0.00000000e+00    0.00000000e+00    1.53941160e-08   -2.59889103e-13   -9.95994664e-11   -1.52942566e-08
67       6.50000000e-07    0.00000000e+00    1.10000000e+00    0.00000000e+00    0.00000000e+00    1.53941160e-08   -2.59889103e-13   -9.95994664e-11   -1.52942566e-08
68       6.60000000e-07    0.00000000e+00    1.10000000e+00    0.00000000e+00    0.00000000e+00    1.53941160e-08   -2.59889103e-13   -9.95994664e-11   -1.52942566e-08
69       6.70000000e-07    0.00000000e+00    1.10000000e+00    0.00000000e+00    0.00000000e+00    1.53941160e-08   -2.59889103e-13   -9.95994664e-11   -1.52942566e-08
70       6.80000000e-07    0.00000000e+00    1.10000000e+00    0.00000000e+00    0.00000000e+00    1.53941160e-08   -2.59889103e-13   -9.95994664e-11   -1.52942566e-08
71       6.90000000e-07    0.00000000e+00    1.10000000e+00    0.00000000e+00    0.00000000e+00    1.53941160e-08   -2.59889103e-13   -9.95994664e-11   -1.52942566e-08
72       7.00000000e-07    0.00000000e+00    1.10000000e+00    0.00000000e+00    0.00000000e+00    1.53941160e-08   -2.59889103e-13   -9.95994664e-11   -1.52942566e-08
73       7.10000000e-07    0.00000000e+00    1.10000000e+00    0.00000000e+00    0.00000000e+00    1.53941160e-08   -2.59889103e-13   -9.95994664e-11   -1.52942566e-08
74       7.20000000e-07    0.00000000e+00    1.10000000e+00    0.00000000e+00    0.00000000e+00    1.53941160e-08   -2.59889103e-13   -9.95994664e-11   -1.52942566e-08
75       7.30000000e-07    0.00000000e+00    1.10000000e+00    0.00000000e+00    0.00000000e+00    1.53941160e-08   -2.59889103e-13   -9.95994664e-11   -1.52942566e-08
76       7.40000000e-07    0.00000000e+00    1.10000000e+00    0.00000000e+00    0.00000000e+00    1.53941160e-08   -2.59889103e-13   -9.95994664e-11   -1.52942566e-08
77       7.50000000e-07    0.00000000e+00    1.10000000e+00    0.00000000e+00    0.00000000e+00    1.53941160e-08   -2.59889103e-13   -9.95994664e-11   -1.52942566e-08
78       7.60000000e-07    0.00000000e+00    1.10000000e+00    0.00000000e+00    0.00000000e+00    1.53941160e-08   -2.59889103e-13   -9.95994664e-11   -1.52942566e-08
79       7.70000000e-07    0.00000000e+00    1.10000000e+00    0.00000000e+00    0.00000000e+00    1.53941160e-08   -2.59889103e-13   -9.95994664e-11   -1.52942566e-08
80       7.80000000e-07    0.00000000e+00    1.10000000e+00    0.00000000e+00    0.00000000e+00    1.53941160e-08   -2.59889103e-13   -9.95994664e-11   -1.52942566e-08
81       7.90000000e-07    0.00000000e+00    1.10000000e+00    0.00000000e+00    0.00000000e+00    1.53941160e-08   -2.59889103e-13   -9.95994664e-11   -1.52942566e-08
82       8.00000000e-07    0.00000000e+00    1.10000000e+00    0.00000000e+00    0.00000000e+00    1.53941160e-08   -2.59889103e-13   -9.95994664e-11   -1.52942566e-08
83       8.10000000e-07    0.00000000e+00    1.10000000e+00    0.00000000e+00    0.00000000e+00    1.53941160e-08   -2.59889103e-13   -9.95994664e-11   -1.52942566e-08
84       8.20000000e-07    0.00000000e+00    1.10000000e+00    0.00000000e+00    0.00000000e+00    1.53941160e-08   -2.59889103e-13   -9.95994664e-11   -1.52942566e-08
85       8.30000000e-07    0.00000000e+00    1.10000000e+00    0.00000000e+00    0.00000000e+00    1.53941160e-08   -2.59889103e-13   -9.95994664e-11   -1.52942566e-08
86       8.40000000e-07    0.00000000e+00    1.10000000e+00    0.00000000e+00    0.00000000e+00    1.53941160e-08   -2.59889103e-13   -9.95994664e-11   -1.52942566e-08
87       8.50000000e-07    0.00000000e+00    1.10000000e+00    0.00000000e+00    0.00000000e+00    1.53941160e-08   -2.59889103e-13   -9.95994664e-11   -1.52942566e-08
88       8.60000000e-07    0.00000000e+00    1.10000000e+00    0.00000000e+00    0.00000000e+00    1.53941160e-08   -2.59889103e-13   -9.95994664e-11   -1.52942566e-08
89       8.70000000e-07    0.00000000e+00    1.10000000e+00    0.00000000e+00    0.00000000e+00    1.53941160e-08   -2.59889103e-13   -9.95994664e-11   -1.52942566e-08
90       8.80000000e-07    0.00000000e+00    1.10000000e+00    0.00000000e+00    0.00000000e+00    1.53941160e-08   -2.59889103e-13   -9.95994664e-11   -1.52942566e-08
91       8.90000000e-07    0.00000000e+00    1.10000000e+00    0.00000000e+00    0.00000000e+00    1.53941160e-08   -2.59889103e-13   -9.95994664e-11   -1.52942566e-08
92       9.00000000e-07    0.00000000e+00    1.10000000e+00    0.00000000e+00    0.00000000e+00    1.53941160e-08   -2.59889103e-13   -9.95994664e-11   -1.52942566e-08
93       9.10000000e-07    0.00000000e+00    1.10000000e+00    0.00000000e+00    0.00000000e+00    1.53941160e-08   -2.59889103e-13   -9.95994664e-11   -1.52942566e-08
94       9.20000000e-07    0.00000000e+00    1.10000000e+00    0.00000000e+00    0.00000000e+00    1.53941160e-08   -2.59889103e-13   -9.95994664e-11   -1.52942566e-08
95       9.30000000e-07    0.00000000e+00    1.10000000e+00    0.00000000e+00    0.00000000e+00    1.53941160e-08   -2.59889103e-13   -9.95994664e-11   -1.52942566e-08
96       9.40000000e-07    0.00000000e+00    1.10000000e+00    0.00000000e+00    0.00000000e+00    1.53941160e-08   -2.59889103e-13   -9.95994664e-11   -1.52942566e-08
97       9.50000000e-07    0.00000000e+00    1.10000000e+00    0.00000000e+00    0.00000000e+00    1.53941160e-08   -2.59889103e-13   -9.95994664e-11   -1.52942566e-08
98       9.60000000e-07    0.00000000e+00    1.10000000e+00    0.00000000e+00    0.00000000e+00    1.53941160e-08   -2.59889103e-13   -9.95994664e-11   -1.52942566e-08
99       9.70000000e-07    0.00000000e+00    1.10000000e+00    0.00000000e+00    0.00000000e+00    1.53941160e-08   -2.59889103e-13   -9.95994664e-11   -1.52942566e-08
100      9.80000000e-07    0.00000000e+00    1.10000000e+00    0.00000000e+00    0.00000000e+00    1.53941160e-08   -2.59889103e-13   -9.95994664e-11   -1.52942566e-08
101      9.90000000e-07    0.00000000e+00    1.10000000e+00    0.00000000e+00    0.00000000e+00    1.53941160e-08   -2.59889103e-13   -9.95994664e-11   -1.52942566e-08
102      1.00000000e-06    0.00000000e+00    1.10000000e+00    0.00000000e+00    0.00000000e+00    1.53941160e-08   -2.59889103e-13   -9.95994664e-11   -1.52942566e-08
103      1.01000000e-06    0.00000000e+00    1.10000000e+00    0.00000000e+00    0.00000000e+00    1.53941160e-08   -2.59889103e-13   -9.95994664e-11   -1.52942566e-08
104      1.02000000e-06    0.00000000e+00    1.10000000e+00    0.00000000e+00    0.00000000e+00    1.53941160e-08   -2.59889103e-13   -9.95994664e-11   -1.52942566e-08
105      1.03000000e-06    0.00000000e+00    1.10000000e+00    0.00000000e+00    0.00000000e+00    1.53941160e-08   -2.59889103e-13   -9.95994664e-11   -1.52942566e-08
106      1.04000000e-06    0.00000000e+00    1.10000000e+00    0.00000000e+00    0.00000000e+00    1.53941160e-08   -2.59889103e-13   -9.95994664e-11   -1.52942566e-08
107      1.05000000e-06    0.00000000e+00    1.10000000e+00    0.00000000e+00    0.00000000e+00    1.53941160e-08   -2.59889103e-13   -9.95994664e-11   -1.52942566e-08
108      1.06000000e-06    0.00000000e+00    1.10000000e+00    0.00000000e+00    0.00000000e+00    1.53941160e-08   -2.59889103e-13   -9.95994664e-11   -1.52942566e-08
109      1.07000000e-06    0.00000000e+00    1.10000000e+00    0.00000000e+00    0.00000000e+00    1.53941160e-08   -2.59889103e-13   -9.95994664e-11   -1.52942566e-08
110      1.08000000e-06    0.00000000e+00    1.10000000e+00    0.00000000e+00    0.00000000e+00    1.53941160e-08   -2.59889103e-13   -9.95994664e-11   -1.52942566e-08
111      1.09000000e-06    0.00000000e+00    1.10000000e+00    0.00000000e+00    0.00000000e+00    1.53941160e-08   -2.59889103e-13   -9.95994664e-11   -1.52942566e-08
112      1.10000000e-06    0.00000000e+00    1.10000000e+00    0.00000000e+00    0.00000000e+00    1.53941160e-08   -2.59889103e-13   -9.95994664e-11   -1.52942566e-08
113      1.11000000e-06    0.00000000e+00    1.10000000e+00    0.00000000e+00    0.00000000e+00    1.53941160e-08   -2.59889103e-13   -9.95994664e-11   -1.52942566e-08
114      1.12000000e-06    0.00000000e+00    1.10000000e+00    0.00000000e+00    0.00000000e+00    1.53941160e-08   -2.59889103e-13   -9.95994664e-11   -1.52942566e-08
115      1.13000000e-06    0.00000000e+00    1.10000000e+00    0.00000000e+00    0.00000000e+00    1.53941160e-08   -2.59889103e-13   -9.95994664e-11   -1.52942566e-08
116      1.14000000e-06    0.00000000e+00    1.10000000e+00    0.00000000e+00    0.00000000e+00    1.53941160e-08   -2.59889103e-13   -9.95994664e-11   -1.52942566e-08
117      1.15000000e-06    0.00000000e+00    1.10000000e+00    0.00000000e+00    0.00000000e+00    1.53941160e-08   -2.59889103e-13   -9.95994664e-11   -1.52942566e-08
